<Qucs Dataset 1.0.7>
<indep frequency 39>
  +1.00000000000000000000e+09
  +1.50000000000000000000e+09
  +2.00000000000000000000e+09
  +2.50000000000000000000e+09
  +3.00000000000000000000e+09
  +3.50000000000000000000e+09
  +4.00000000000000000000e+09
  +4.50000000000000000000e+09
  +5.00000000000000000000e+09
  +5.50000000000000000000e+09
  +6.00000000000000000000e+09
  +6.50000000000000000000e+09
  +7.00000000000000000000e+09
  +7.50000000000000000000e+09
  +8.00000000000000000000e+09
  +8.50000000000000000000e+09
  +9.00000000000000000000e+09
  +9.50000000000000000000e+09
  +1.00000000000000000000e+10
  +1.05000000000000000000e+10
  +1.10000000000000000000e+10
  +1.15000000000000000000e+10
  +1.20000000000000000000e+10
  +1.25000000000000000000e+10
  +1.30000000000000000000e+10
  +1.35000000000000000000e+10
  +1.40000000000000000000e+10
  +1.45000000000000000000e+10
  +1.50000000000000000000e+10
  +1.55000000000000000000e+10
  +1.60000000000000000000e+10
  +1.65000000000000000000e+10
  +1.70000000000000000000e+10
  +1.75000000000000000000e+10
  +1.80000000000000000000e+10
  +1.85000000000000000000e+10
  +1.90000000000000000000e+10
  +1.95000000000000000000e+10
  +2.00000000000000000000e+10
</indep>
<dep K_fact frequency>
  +8.90980630890384345255e-02
  +1.33651607977321229548e-01
  +1.78210588377013895434e-01
  +2.22776848600152066471e-01
  +2.67352260747969194821e-01
  +3.11938731600416130352e-01
  +3.56538209467630651250e-01
  +4.01152690996124494660e-01
  +4.45784227922774611841e-01
  +4.90434933769904046752e-01
  +5.35106990475069377311e-01
  +5.79802654949512996652e-01
  +6.24524265559552427263e-01
  +6.69274248525615567118e-01
  +7.14055124234024285457e-01
  +7.58869513457048672223e-01
  +8.03720143477227866313e-01
  +8.48609854112464478959e-01
  +8.93541603638757897521e-01
  +9.38518474608129760206e-01
  +9.83543679559665373624e-01
  +1.02862056662214573777e+00
  +1.07375262500731616377e+00
  +1.11894349039331730822e+00
  +1.16419695019831714866e+00
  +1.20951694874496529231e+00
  +1.25490759231679493979e+00
  +1.30037315410804299454e+00
  +1.34591807906922666938e+00
  +1.39154698865088000126e+00
  +1.43726468544862617804e+00
  +1.48307615775306733674e+00
  +1.52898658400852838213e+00
  +1.57500133718496737600e+00
  +1.62112598906790639219e+00
  +1.66736631447153271779e+00
  +1.71372829538060078569e+00
  +1.76021812502671815004e+00
  +1.80684221190564975323e+00
</dep>
<dep delta frequency>
  -2.35905793259422874586e-01+j7.72518001659109554424e-01
  +1.23124360936362961527e-01+j7.81078077036904794284e-01
  +3.92838544699323444220e-01+j6.71965414934164950722e-01
  +5.71303013863559416841e-01+j5.11854102118649456621e-01
  +6.75864131046938654279e-01+j3.36264220119648127305e-01
  +7.22462038701790154605e-01+j1.61521241638699630805e-01
  +7.21723450774893859894e-01-j4.15824413125534531055e-03
  +6.80273879885622823060e-01-j1.54733809255041931952e-01
  +6.03138309256117999269e-01-j2.83722835187845745519e-01
  +4.96179750884995940385e-01-j3.83649675290720915122e-01
  +3.68037425818146579637e-01-j4.47128238558750723541e-01
  +2.30794671732459155677e-01-j4.69174571953023589188e-01
  +9.86784270133294061367e-02-j4.49713012785399379734e-01
  -1.49827107845530160812e-02-j3.94710168811040762460e-01
  -1.01028331506974697329e-01-j3.14931154397134260847e-01
  -1.56140088385506609070e-01-j2.22887696755189601561e-01
  -1.82263476733823898135e-01-j1.29696743533989855557e-01
  -1.84593481795421066050e-01-j4.32517844122444761190e-02
  -1.69418041826502191460e-01+j3.20521401199881650346e-02
  -1.42621178115491242799e-01+j9.46218603965218729712e-02
  -1.08977525192878260674e-01+j1.44686025437323340093e-01
  -7.20120680446698913091e-02+j1.83445502486465183978e-01
  -3.41486367272877677781e-02+j2.12486947902542910871e-01
  +3.04660394715625115758e-03+j2.33437958671188716675e-01
  +3.86271536072876620072e-02+j2.47793715884102400127e-01
  +7.20717093781960693732e-02+j2.56848479493825165854e-01
  +1.03139238996996229769e-01+j2.61684103452731353645e-01
  +1.31766769406345296556e-01+j2.63185836432719311162e-01
  +1.57999889666275650235e-01+j2.62068659754135402373e-01
  +1.81946753040986397565e-01+j2.58905531995990423333e-01
  +2.03748317257559263815e-01+j2.54153560834166847293e-01
  +2.23559524767735467998e-01+j2.48176608292060008054e-01
  +2.41537721780157255136e-01+j2.41264070620269027723e-01
  +2.57835798342818167672e-01+j2.33646127330328690075e-01
  +2.72598366045247841871e-01+j2.25505954996231716692e-01
  +2.85959861033324880264e-01+j2.16989431941643745594e-01
  +2.98043844030418225710e-01+j2.08212815843859533338e-01
  +3.08963024317530310370e-01+j1.99268806098358453038e-01
  +3.18819703028652368104e-01+j1.90231329535057502866e-01
</dep>
<dep dB_22 frequency>
  -1.52300885500421401275e+00
  -1.42595769728777721497e+00
  -1.31900125296800818653e+00
  -1.24017598686161867327e+00
  -1.19455112687347364542e+00
  -1.18482178872331989083e+00
  -1.21744109746614048717e+00
  -1.30351225246462143481e+00
  -1.45823674797699265326e+00
  -1.69930906825470184884e+00
  -2.04394792870537145291e+00
  -2.50451844918976629373e+00
  -3.08351994888718605736e+00
  -3.76956045069688716609e+00
  -4.53603419435140065019e+00
  -5.34329734979635961878e+00
  -6.14392541610610187774e+00
  -6.88996637623402463646e+00
  -7.54082313484522437363e+00
  -8.06991288542628915081e+00
  -8.46793244231659691934e+00
  -8.74151978140793950445e+00
  -8.90825233988999443113e+00
  -8.99050874763720386795e+00
  -9.01050122257203867093e+00
  -8.98741590343277252373e+00
  -8.93640545486557691390e+00
  -8.86872270606809465221e+00
  -8.79235861044876187975e+00
  -8.71279019398384413364e+00
  -8.63365270238986859397e+00
  -8.55727618622573693585e+00
  -8.48508708741670503173e+00
  -8.41789748660753112119e+00
  -8.35610851942278110016e+00
  -8.29985122472277936367e+00
  -8.24908302057300701904e+00
  -8.20365322853068867914e+00
  -8.16334722443595595109e+00
</dep>
<dep dB_11 frequency>
  -2.43277656001717745848e-01
  -4.85846565698775434416e-01
  -7.52376419919419614502e-01
  -1.04819269514613466754e+00
  -1.39289954118520142856e+00
  -1.81185901577635632975e+00
  -2.33468157000759335418e+00
  -2.99541589040497235885e+00
  -3.83115842667308381664e+00
  -4.87491096420194658378e+00
  -6.13332802787578312831e+00
  -7.52895814288573994588e+00
  -8.79050196957902585382e+00
  -9.42099462982591973059e+00
  -9.10617260602831635197e+00
  -8.13452636358169911546e+00
  -6.98427633425781646537e+00
  -5.91763947907686649330e+00
  -5.01203653427503947881e+00
  -4.26728712278758059995e+00
  -3.66034564650545046760e+00
  -3.16528204451797368080e+00
  -2.75930510368252734921e+00
  -2.42392823502494270116e+00
  -2.14461526601818786020e+00
  -1.91006331731640410787e+00
  -1.71149974744193711373e+00
  -1.54209588864165669797e+00
  -1.39650745245837359931e+00
  -1.27052372711240169068e+00
  -1.16080273834302660774e+00
  -1.06467190051336668688e+00
  -9.79977747502885909725e-01
  -9.04972211393042402783e-01
  -8.38226093691024076726e-01
  -7.78562815972595245739e-01
  -7.25007358586060135508e-01
  -6.76746635530466322805e-01
  -6.33098532472470498789e-01
</dep>
<dep dB_21 frequency>
  +5.45148096721580088797e+00
  +8.00448447280899166856e+00
  +9.39683338130112311148e+00
  +1.02653239488434451232e+01
  +1.08678879150675875565e+01
  +1.13204525690954085348e+01
  +1.16752263099935902346e+01
  +1.19519193470050453243e+01
  +1.21518108781253815209e+01
  +1.22653686686087119995e+01
  +1.22778744856513029049e+01
  +1.21747930508250554738e+01
  +1.19468791738727091456e+01
  +1.15938543246074736714e+01
  +1.11253703581426659497e+01
  +1.05590488835217470864e+01
  +9.91675472378443068067e+00
  +9.22079089459288425701e+00
  +8.49118632044312882101e+00
  +7.74437000518679852235e+00
  +6.99293362851278832437e+00
  +6.24601849809835307781e+00
  +5.50994929257748999873e+00
  +4.78888801790432516725e+00
  +4.08540368245366192212e+00
  +3.40092681955169595653e+00
  +2.73609382441857329482e+00
  +2.09099943688875811176e+00
  +1.46537791031801867270e+00
  +8.58731043633930157810e-01
  +2.70417600260178192517e-01
  -3.00284893959961773913e-01
  -8.54137911468937138793e-01
  -1.39191343889736063311e+00
  -1.91437511778170765808e+00
  -2.42226609016113947348e+00
  -2.91630149286000284192e+00
  -3.39716415571737195833e+00
  -3.86550249003555546068e+00
</dep>
<dep Rn frequency>
  +3.21983147336342838685e+01
  +3.15939785148763192524e+01
  +3.07610821170299821858e+01
  +2.97127897763711175116e+01
  +2.84660126151589594201e+01
  +2.70413980106723350616e+01
  +2.54633167258980037673e+01
  +2.37598478753304718225e+01
  +2.19627618118107079681e+01
  +2.01075010323607656915e+01
  +1.82331592125192685216e+01
  +1.63824584896821434654e+01
  +1.46017251263676630657e+01
  +1.29408636941041272905e+01
  +1.14533299277468270105e+01
  +1.01961024084340898810e+01
  +9.22965324106422890793e+00
  +8.61791789909293726168e+00
  +8.42826441559717487451e+00
  +8.73146210491837493350e+00
  +9.60165000377935839992e+00
  +1.11163052245643463323e+01
  +1.33562114164698542140e+01
  +1.64054275324845804107e+01
  +2.03512571016569694393e+01
  +2.52842182068791281324e+01
  +3.12980143684860330211e+01
  +3.84895065333606822833e+01
  +4.69586863679943746774e+01
  +5.68086510521026326614e+01
  +6.81455797669878080569e+01
  +8.10787120699159089554e+01
  +9.57203283423659314622e+01
  +1.12185732496187256402e+02
  +1.30593237117491014487e+02
  +1.51064151223557644244e+02
  +1.73722770803232577919e+02
  +1.98696372306227146964e+02
  +2.26115209241512445715e+02
</dep>
<dep Fmin frequency>
  +1.03255021967221827239e+00
  +1.04928851282119062205e+00
  +1.06633949059470323206e+00
  +1.08370592076931138159e+00
  +1.10139044407508324142e+00
  +1.11939557143248524795e+00
  +1.13772368156775804948e+00
  +1.15637701902207878923e+00
  +1.17535769256804623062e+00
  +1.19466767404515605833e+00
  +1.21430879762401677802e+00
  +1.23428275950704846586e+00
  +1.25459111807134915395e+00
  +1.27523529445735750443e+00
  +1.29621657360484054955e+00
  +1.31753610573565782538e+00
  +1.33919490828068465937e+00
  +1.36119386824628896271e+00
  +1.38353374501373993510e+00
  +1.40621517356309277957e+00
  +1.42923866811122790565e+00
  +1.45260462615206931147e+00
  +1.47631333288532751169e+00
  +1.50036496601871949252e+00
  +1.52475960092717066630e+00
  +1.54949721615134006214e+00
  +1.57457769921672152691e+00
  +1.60000085275356873638e+00
  +1.62576640089722168625e+00
  +1.65187399594764894317e+00
  +1.67832322526658606066e+00
  +1.70511361839029751408e+00
  +1.73224465433577701212e+00
  +1.75971576907809357238e+00
  +1.78752636317679058919e+00
  +1.81567580952921914239e+00
  +1.84416346122927343743e+00
  +1.87298865951018411735e+00
  +1.90215074175075882223e+00
</dep>
<dep Sopt frequency>
  -3.88867124408105724331e-01-j9.05097614406150663413e-01
  +2.27082185298854571931e-02-j9.61641743672732807191e-01
  +3.24989962443798907632e-01-j8.73803963554817708648e-01
  +5.20120054963717715069e-01-j7.33440130870829265497e-01
  +6.35784666422711253198e-01-j5.84435784825593773739e-01
  +6.96300389226375604501e-01-j4.43762200030219045033e-01
  +7.18228846022813560701e-01-j3.16906377071979827864e-01
  +7.12082666862980495637e-01-j2.05160192982238753778e-01
  +6.84499756459288954957e-01-j1.08638216381386987219e-01
  +6.39857564634523368063e-01-j2.74449282010558980038e-02
  +5.81369913868936771806e-01+j3.79346306640800379206e-02
  +5.11839512842459654074e-01+j8.65970088244742697281e-02
  +4.34180734295093129216e-01+j1.17381511388040954413e-01
  +3.51752877967831278916e-01+j1.29173641663908961297e-01
  +2.68490176821793935513e-01+j1.21307804798465951324e-01
  +1.88795300278891547974e-01+j9.39967796498901997371e-02
  +1.17189056576025935064e-01+j4.86743935368635083361e-02
  +5.77774985966309356789e-02-j1.18773647647382653986e-02
  +1.36778811157915666796e-02-j8.37028882394749013107e-02
  -1.34154495906721790005e-02-j1.62135088843696428818e-01
  -2.33839064432673771066e-02-j2.42419327655947230982e-01
  -1.75222438216977409453e-02-j3.20314787499121955694e-01
  +1.85785152346475460582e-03-j3.92516330923228295990e-01
  +3.19147160140028640640e-02-j4.56828679566392004130e-01
  +6.97202254550209343797e-02-j5.12118214037897701019e-01
  +1.12580915628750014013e-01-j5.58122262164324700606e-01
  +1.58218490381962978431e-01-j5.95203183266066915280e-01
  +2.04832263664276786885e-01-j6.24112118262172832495e-01
  +2.51081915210976058805e-01-j6.45796858772150650374e-01
  +2.96027246944911393012e-01-j6.61263698741773597867e-01
  +3.39052127151747040301e-01-j6.71488573519262943456e-01
  +3.79789321932521128922e-01-j6.77366763645036340513e-01
  +4.18054601743644393963e-01-j6.79689711628294501722e-01
  +4.53793059467361759030e-01-j6.79139257955512998244e-01
  +4.87037521163564024462e-01-j6.76292068617488584259e-01
  +5.17877512204686585306e-01-j6.71629317468166564531e-01
  +5.46436792834883000580e-01-j6.65548486857367227465e-01
  +5.72857529863095682465e-01-j6.58375432287794049024e-01
  +5.97289438426278573857e-01-j6.50375709022808057291e-01
</dep>
<dep F frequency>
  +3.12838373121243629171e+00
  +2.23600065281046234134e+00
  +1.91539555169277453395e+00
  +1.75830376929576592815e+00
  +1.66425639297232530467e+00
  +1.59912391467986569893e+00
  +1.54896321035466999483e+00
  +1.50744015371844408691e+00
  +1.47155637983951304015e+00
  +1.43995724147935311166e+00
  +1.41218126389949905075e+00
  +1.38829655399362117407e+00
  +1.36871174276403673176e+00
  +1.35407175556604908451e+00
  +1.34519742365479832991e+00
  +1.34304895159911330538e+00
  +1.34870294739505003356e+00
  +1.36333746062826044465e+00
  +1.38822190796584687966e+00
  +1.42471007015910666738e+00
  +1.47423507109120266456e+00
  +1.53830566735624518770e+00
  +1.61850342456346529829e+00
  +1.71648050730846146728e+00
  +1.83395790371031575106e+00
  +1.97272396525191284766e+00
  +2.13463318152412018236e+00
  +2.32160513516787236910e+00
  +2.53562359957158278689e+00
  +2.77873575365055947017e+00
  +3.05305149616497306653e+00
  +3.36074284771415188189e+00
  +3.70404343255497447984e+00
  +4.08524803524668644883e+00
  +4.50671222916961511373e+00
  +4.97085207543692764176e+00
  +5.48014389178007199632e+00
  +6.03712409175289277385e+00
  +6.64438909514751063767e+00
</dep>
<dep S[2,2] frequency>
  +8.35520237713359370524e-01-j7.81725582882420721997e-02
  +8.43433987035529519893e-01-j9.34775057983243812254e-02
  +8.50167065212723782608e-01-j1.23652362324753031797e-01
  +8.51762307881048119640e-01-j1.61534540858818242981e-01
  +8.47299445975709719647e-01-j2.03994044241032596032e-01
  +8.36068916313830401421e-01-j2.49443665972092054606e-01
  +8.17048990558628562830e-01-j2.96594357648535422722e-01
  +7.89009417646530097912e-01-j3.43766062380306880453e-01
  +7.50902569320668455966e-01-j3.88499426731121921819e-01
  +7.02464752957463800520e-01-j4.27473759207884718148e-01
  +6.44886388573180036055e-01-j4.56865611797169501873e-01
  +5.81226000951521881710e-01-j4.73215488912093695806e-01
  +5.16165389536192287245e-01-j4.74567372187569502806e-01
  +4.54974907167441044997e-01-j4.61301749164246099877e-01
  +4.02107341770194692820e-01-j4.36109279826087492538e-01
  +3.60159565450515473106e-01-j4.03086089167920991194e-01
  +3.29661194285017722372e-01-j3.66502605594383912280e-01
  +3.09567611133280851110e-01-j3.29869583632157958863e-01
  +2.98009697050523159056e-01-j2.95557833372105560610e-01
  +2.92928427705821725624e-01-j2.64860934911606504816e-01
  +2.92456207656686895113e-01-j2.38264505610533805502e-01
  +2.95074368037500867068e-01-j2.15740362458457651806e-01
  +2.99631225550005819702e-01-j1.96981031479182971955e-01
  +3.05294645724472457626e-01-j1.81557572496613361945e-01
  +3.11485006999047797649e-01-j1.69013584315575920991e-01
  +3.17811056401986646858e-01-j1.58915034710927549622e-01
  +3.24016948499284307417e-01-j1.50872758634298054226e-01
  +3.29941720863238918682e-01-j1.44549453809907108015e-01
  +3.35489630971364360956e-01-j1.39658627195712758962e-01
  +3.40609034605124705308e-01-j1.35959853565990995694e-01
  +3.45277615223996192650e-01-j1.33252742327199025230e-01
  +3.49492183276167045491e-01-j1.31370840443568392963e-01
  +3.53261698607215068879e-01-j1.30176039124676012904e-01
  +3.56602537633254113025e-01-j1.29553696163287074272e-01
  +3.59535311258106893284e-01-j1.29408504787200173691e-01
  +3.62082748166925760813e-01-j1.29661055570315597585e-01
  +3.64268306940987496301e-01-j1.30245005160939453237e-01
  +3.66115284798651630105e-01-j1.31104758941075594247e-01
  +3.67646263234281067689e-01-j1.32193580349567352261e-01
</dep>
<dep S[2,1] frequency>
  -6.68477530391371255192e-01-j1.74981508089798354355e+00
  -1.70891618438373571465e+00-j1.84274183608028163661e+00
  -2.53371266374061931970e+00-j1.51115445936339565236e+00
  -3.10895021287202011351e+00-j9.82042406520365784850e-01
  -3.47512869245255195949e+00-j3.68153084345483549988e-01
  -3.67068382847590246598e+00+j2.81756353412424942473e-01
  -3.71673906738966186580e+00+j9.44881587974473191593e-01
  -3.61975340293596214991e+00+j1.60369003447498736925e+00
  -3.37878950341571071547e+00+j2.23529000775720376737e+00
  -2.99463961969079495162e+00+j2.80707818357110339136e+00
  -2.47952275783052300540e+00+j3.27843025178573688194e+00
  -1.86428607847609617565e+00+j3.60891412555456181366e+00
  -1.19860751675856302967e+00+j3.77088797811268117144e+00
  -5.41890165970999704292e-01+j3.76036073918493629620e+00
  +5.15798057791576752829e-02+j3.59934875819191413271e+00
  +5.45254028615397734470e-01+j3.32813457379110122503e+00
  +9.24737138142697645549e-01+j2.99249181454828061533e+00
  +1.19413711109874953742e+00+j2.63279102839341883069e+00
  +1.36866539504146400574e+00+j2.27856538687771292828e+00
  +1.46767179178154938413e+00+j1.94803594900009247048e+00
  +1.51002698202664986660e+00+j1.65031594014782712065e+00
  +1.51186875888242044930e+00+j1.38829163181412718053e+00
  +1.48596014221593053506e+00+j1.16111761627373089034e+00
  +1.44189582215911826779e+00+j9.66007816146621123288e-01
  +1.38663959930394331543e+00+j7.99376003326591422216e-01
  +1.32511444004416256703e+00+j6.57495460504580631067e-01
  +1.26072451899533399811e+00+j5.36843505783459407077e-01
  +1.19577355920199557282e+00+j4.34255733987698733234e-01
  +1.13178232023983693644e+00+j3.46973050992495535283e-01
  +1.06972186529923485310e+00+j2.72632734133328780146e-01
  +1.01018153471681082500e+00+j2.09233395545489891942e-01
  +9.53488357037653111448e-01+j1.55090409143994967245e-01
  +8.99791217805515186612e-01+j1.08790456323314507769e-01
  +8.49119830144650311610e-01+j6.91493321289882306724e-02
  +8.01425850127695960090e-01+j3.51746740152746178998e-02
  +7.56611408072350166698e-01+j6.03397560304085815025e-03
  +7.14548799078641438953e-01-j1.89723864027182449743e-02
  +6.75093974868489543617e-01-j4.04336540556057694173e-02
  +6.38095695763708059545e-01-j5.88473390541658786246e-02
</dep>
<dep S[1,2] frequency>
  -7.63882765025272400528e-03+j2.72637271882263240372e-03
  -1.23274609776207848266e-02+j1.06945300433731529943e-02
  -1.40365357543068367679e-02+j2.13321840100900855797e-02
  -1.24620531763083419036e-02+j3.29885672490541834168e-02
  -7.75168327294820016377e-03+j4.46691517239388574678e-02
  -3.93319613609834756694e-05+j5.56929978090996424811e-02
  +1.05964267829010676952e-02+j6.54104114652995227708e-02
  +2.40228068500368784066e-02+j7.30588007912543746514e-02
  +3.98880559957574751251e-02+j7.77395197798736586892e-02
  +5.74536798565200290678e-02+j7.85222507968355853958e-02
  +7.55021743406362744189e-02+j7.46822569228721838686e-02
  +9.24236645308321724812e-02+j6.60139272187251352486e-02
  +1.06534018813524894442e-01+j5.30681984741323553578e-02
  +1.16528417020281854777e-01+j3.71339184761630969334e-02
  +1.21837864226764569509e-01+j1.99139627089982181041e-02
  +1.22693226821051201703e-01+j3.05726827502449810536e-03
  +1.19902172308209570284e-01-j1.22073047419443830863e-02
  +1.14510992968567107408e-01-j2.52016919539057408783e-02
  +1.07524744535817451396e-01-j3.57283495784892907166e-02
  +9.97569119529801984214e-02-j4.39112992655130290887e-02
