<Qucs Dataset 26.1.0>
<indep frequency 39>
1.000000000000e+09
1.500000000000e+09
2.000000000000e+09
2.500000000000e+09
3.000000000000e+09
3.500000000000e+09
4.000000000000e+09
4.500000000000e+09
5.000000000000e+09
5.500000000000e+09
6.000000000000e+09
6.500000000000e+09
7.000000000000e+09
7.500000000000e+09
8.000000000000e+09
8.500000000000e+09
9.000000000000e+09
9.500000000000e+09
1.000000000000e+10
1.050000000000e+10
1.100000000000e+10
1.150000000000e+10
1.200000000000e+10
1.250000000000e+10
1.300000000000e+10
1.350000000000e+10
1.400000000000e+10
1.450000000000e+10
1.500000000000e+10
1.550000000000e+10
1.600000000000e+10
1.650000000000e+10
1.700000000000e+10
1.750000000000e+10
1.800000000000e+10
1.850000000000e+10
1.900000000000e+10
1.950000000000e+10
2.000000000000e+10
</indep>
<dep ac.s_1_1 frequency>
-3.792181642816e-01+j9.245285679894e-01
6.725798926360e-02+j9.948570606845e-01
4.204995024345e-01+j8.994656372426e-01
6.672056504048e-01+j7.262673857494e-01
8.249162486905e-01+j5.228250410089e-01
9.121451619340e-01+j3.106118318788e-01
9.410263806336e-01+j9.896717990237e-02
9.173201589848e-01-j1.067869849423e-01
8.421956256200e-01-j3.007876046142e-01
7.147122482418e-01-j4.737443145407e-01
5.353287614570e-01-j6.112517731076e-01
3.106912970839e-01-j6.941876051577e-01
5.850408678704e-02-j7.029217350406e-01
-1.911419845850e-01-j6.258799860397e-01
-4.021407212056e-01-j4.686741906839e-01
-5.454162607281e-01-j2.561347772247e-01
-6.099721790300e-01-j2.344211886247e-02
-6.037563404629e-01+j1.974908209162e-01
-5.456642865180e-01+j3.867260443307e-01
-4.562387814679e-01+j5.369375007971e-01
-3.521600223808e-01+j6.494083511055e-01
-2.447765248308e-01+j7.295609124721e-01
-1.408324866705e-01+j7.839055379017e-01
-4.381416750497e-02+j8.184921655256e-01
4.484077692009e-02+j8.383459653196e-01
1.248748364888e-01+j8.474034080617e-01
1.966539086442e-01+j8.486498268771e-01
2.608349013456e-01+j8.443087399828e-01
3.181779254116e-01+j8.360201164331e-01
3.694460047557e-01+j8.249874596326e-01
4.153555714988e-01+j8.120918432103e-01
4.565554133422e-01+j7.979775156895e-01
4.936209633090e-01+j7.831150846240e-01
5.270564282672e-01+j7.678477704394e-01
5.573005588188e-01+j7.524251635188e-01
5.847337747474e-01+j7.370278636470e-01
6.096854486234e-01+j7.217855011376e-01
6.324407604483e-01+j7.067899593135e-01
6.532468718344e-01+j6.921051130281e-01
</dep>
<dep ac.y_1_1 frequency>
6.954888088351e-06-j3.022872785534e-02
1.599430428607e-05-j1.932131571873e-02
2.932973145185e-05-j1.359497037423e-02
4.772553671967e-05-j9.920909018652e-03
7.230121335927e-05-j7.249426379956e-03
1.046677995229e-04-j5.123256977715e-03
1.471440757796e-04-j3.305235263979e-03
2.031045171151e-04-j1.653262891564e-03
2.775538418520e-04-j6.898982484149e-05
3.781081287992e-04+j1.527456656659e-03
5.167406124527e-04+j3.213144852256e-03
7.130461191540e-04+j5.075773443769e-03
1.000722177653e-03+j7.230045517657e-03
1.441415533567e-03+j9.843640238024e-03
2.157140038049e-03+j1.318570967492e-02
3.415615203921e-03+j1.772825441422e-02
5.892565545594e-03+j2.437833475555e-02
1.166741341343e-02+j3.502675346712e-02
2.921570805367e-02+j5.311448820095e-02
9.775018102062e-02+j5.932074128288e-02
1.020612545735e-01-j6.292289412202e-02
3.350441166548e-02-j6.171975660938e-02
1.472325073471e-02-j4.510165390449e-02
8.193981948266e-03-j3.503388755874e-02
5.246438544305e-03-j2.872996804253e-02
3.672416030680e-03-j2.446972475198e-02
2.731933123832e-03-j2.140643348592e-02
2.123471775324e-03-j1.909678267035e-02
1.705893051844e-03-j1.729037014435e-02
1.406005632119e-03-j1.583616686328e-02
1.182756036238e-03-j1.463801410306e-02
1.011645159723e-03-j1.363189636459e-02
8.773011274071e-04-j1.277358614380e-02
7.696712491228e-04-j1.203155811057e-02
6.819489283395e-04-j1.138273560328e-02
6.093870988164e-04-j1.080983544252e-02
5.485895985039e-04-j1.029965349282e-02
4.970722389994e-04-j9.841924589745e-03
4.529821710409e-04-j9.428544567416e-03
</dep>
<dep ac.z_1_1 frequency>
1.012581695891e+00+j3.720232466389e+01
8.377698088545e+00+j6.916005149951e+01
5.683766963315e+01+j1.188182863693e+02
1.658529591161e+02+j4.922334706732e+01
1.082980570739e+02-j2.682796682223e+01
6.920957975161e+01-j2.441631979380e+01
5.206439111283e+01-j1.472889420331e+01
4.321195624853e+01-j5.970578977606e+00
3.797004471544e+01+j1.504704838535e+00
3.454692725166e+01+j8.014096943983e+00
3.214418863287e+01+j1.383573502157e+01
3.036089857523e+01+j1.916285404752e+01
2.897663016042e+01+j2.412652439943e+01
2.786144635052e+01+j2.881701300084e+01
2.693444743955e+01+j3.329799275674e+01
2.614301726649e+01+j3.761549507803e+01
2.545170328469e+01+j4.180356477734e+01
2.483591574454e+01+j4.588789947532e+01
2.427818638130e+01+j4.988824684199e+01
2.376585688267e+01+j5.382002142802e+01
2.328960120841e+01+j5.769542010171e+01
2.284245263347e+01+j6.152420799338e+01
2.241914636070e+01+j6.531428317030e+01
2.201566514751e+01+j6.907208966849e+01
2.162891888395e+01+j7.280292461716e+01
2.125651457618e+01+j7.651117009274e+01
2.089658859960e+01+j8.020047060307e+01
2.054768263797e+01+j8.387387070446e+01
2.020865078715e+01+j8.753392297405e+01
1.987858923096e+01+j9.118277364960e+01
1.955678249353e+01+j9.482223123853e+01
1.924266201982e+01+j9.845382198993e+01
1.893577403020e+01+j1.020788351233e+02
1.863575442474e+01+j1.056983599895e+02
1.834230909694e+01+j1.093133168156e+02
1.805519843310e+01+j1.129244823034e+02
1.777422507508e+01+j1.165325110628e+02
1.749922424373e+01+j1.201379536490e+02
1.723005608349e+01+j1.237412718108e+02
</dep>
<dep ac.i(cy_1_1) frequency>
1.012689945312e-25+j0.000000000000e+00
2.328889433628e-25+j0.000000000000e+00
4.270587582395e-25+j0.000000000000e+00
6.949047220238e-25+j0.000000000000e+00
1.052722214507e-24+j0.000000000000e+00
1.523961236164e-24+j0.000000000000e+00
2.142373050054e-24+j0.000000000000e+00
2.957074385047e-24+j0.000000000000e+00
4.040909505786e-24+j0.000000000000e+00
5.504729368432e-24+j0.000000000000e+00
7.522799579378e-24+j0.000000000000e+00
1.038030978415e-23+j0.000000000000e+00
1.456769619914e-23+j0.000000000000e+00
2.098215374119e-23+j0.000000000000e+00
3.139941662481e-23+j0.000000000000e+00
4.971568255338e-23+j0.000000000000e+00
8.576477913932e-23+j0.000000000000e+00
1.698079717547e-22+j0.000000000000e+00
4.251847629532e-22+j0.000000000000e+00
1.422510516487e-21+j0.000000000000e+00
1.485163631451e-21+j0.000000000000e+00
4.875169662189e-22+j0.000000000000e+00
2.142222747997e-22+j0.000000000000e+00
1.192141881684e-22+j0.000000000000e+00
7.632527871643e-23+j0.000000000000e+00
5.342264536374e-23+j0.000000000000e+00
3.973855975487e-23+j0.000000000000e+00
3.088559213140e-23+j0.000000000000e+00
2.481003936490e-23+j0.000000000000e+00
2.044691346677e-23+j0.000000000000e+00
1.719886338858e-23+j0.000000000000e+00
1.470941780893e-23+j0.000000000000e+00
1.275491270032e-23+j0.000000000000e+00
1.118908096277e-23+j0.000000000000e+00
9.912887400135e-24+j0.000000000000e+00
8.857263486302e-24+j0.000000000000e+00
7.972796500608e-24+j0.000000000000e+00
7.223342920316e-24+j0.000000000000e+00
6.581945113390e-24+j0.000000000000e+00
</dep>
<dep ac.s_1_2 frequency>
-8.032868820730e-03+j5.689455400538e-03
-1.283877470476e-02+j1.486156424923e-02
-1.514054075255e-02+j2.685699797245e-02
-1.452843618266e-02+j4.034484855672e-02
-1.099657504019e-02+j5.457368713295e-02
-4.467658287793e-03+j6.911364006882e-02
5.322769472744e-03+j8.358312121110e-02
1.880345141240e-02+j9.744078844287e-02
3.646485970646e-02+j1.098088203460e-01
5.865163064171e-02+j1.193233222311e-01
8.520532602267e-02+j1.240805746310e-01
1.149764288797e-01+j1.218396582509e-01
1.454165856209e-01+j1.106686504473e-01
1.727077691141e-01+j8.999567539135e-02
1.928119330319e-01+j6.149183362986e-02
2.030895414800e-01+j2.890980671357e-02
2.033453834677e-01-j3.308030901513e-03
1.955201404571e-01-j3.167301967563e-02
1.824798975203e-01-j5.444075335528e-02
1.668963275002e-01-j7.140472555146e-02
1.507170859687e-01-j8.325524453521e-02
1.351289941602e-01-j9.100589370420e-02
1.207380133646e-01-j9.565493979747e-02
1.077765640691e-01-j9.804355407485e-02
9.626444780566e-02-j9.882635940075e-02
8.611400360748e-02-j9.849078636361e-02
7.719210020411e-02-j9.739071880420e-02
6.935390742523e-02-j9.577936423804e-02
6.245982958833e-02-j9.383634983267e-02
5.638298923897e-02-j9.168841014713e-02
5.101167918516e-02-j8.942457445302e-02
4.624929423741e-02-j8.710708868594e-02
4.201311698996e-02-j8.477918961177e-02
3.823268234842e-02-j8.247061500899e-02
3.484808514621e-02-j8.020150672111e-02
3.180840025226e-02-j7.798517948009e-02
2.907028201792e-02-j7.583009040067e-02
2.659675802399e-02-j7.374124446022e-02
2.435620750242e-02-j7.172120086163e-02
</dep>
<dep ac.y_1_2 frequency>
-3.974936432260e-07-j2.001177794113e-04
-9.394872059959e-07-j3.034668618976e-04
-1.787921975330e-06-j4.109277976895e-04
-3.045612597717e-06-j5.241604785594e-04
-4.866366994612e-06-j6.451087507802e-04
-7.476968218338e-06-j7.761236175179e-04
-1.121255615727e-05-j9.201346211133e-04
-1.657451547463e-05-j1.080897219781e-03
-2.432768887219e-05-j1.263362385904e-03
-3.566922494946e-05-j1.474248363768e-03
-5.253414542823e-05-j1.722958783158e-03
-7.817635597242e-05-j2.023119782416e-03
-1.183414014510e-04-j2.395280176124e-03
-1.838134408972e-04-j2.871929727751e-03
-2.964769838580e-04-j3.507469374756e-03
-5.055422849137e-04-j4.399632954728e-03
-9.382917701270e-04-j5.739590131458e-03
-1.996462187866e-03-j7.934780156962e-03
-5.365625611442e-03-j1.178063184678e-02
-1.924303793506e-02-j1.378945332900e-02
-2.150725819550e-02+j1.106134332452e-02
-7.547449565580e-03+j1.161750868148e-02
-3.540616385025e-03+j8.471593302482e-03
-2.100642520624e-03+j6.517893884970e-03
-1.431907623865e-03+j5.287830244908e-03
-1.065653814234e-03+j4.456587884544e-03
-8.417446929572e-04+j3.860420047435e-03
-6.938224057420e-04+j3.412675160890e-03
-5.903437826659e-04+j3.064118578806e-03
-5.147147966245e-04+j2.784950487459e-03
-4.575007650601e-04+j2.556158861909e-03
-4.129984436869e-04+j2.365073615249e-03
-3.775850670581e-04+j2.202938389381e-03
-3.488633985647e-04+j2.063513247500e-03
-3.251918392110e-04+j1.942233786836e-03
-3.054130003212e-04+j1.835685242024e-03
-2.886901625954e-04+j1.741262444056e-03
-2.744051046850e-04+j1.656943471814e-03
-2.620922332108e-04+j1.581135089359e-03
</dep>
<dep ac.z_1_2 frequency>
-2.705287890879e+00+j6.164528822606e-01
-7.274442840170e+00+j3.277608711479e+00
-1.348172407645e+01+j1.580533681967e+01
9.096808339817e+00+j3.428295026622e+01
2.311262881836e+01+j1.692068273340e+01
2.138241589369e+01+j8.148775166040e+00
1.930956571575e+01+j4.515781334870e+00
1.785755230631e+01+j2.624844595868e+00
1.683913531949e+01+j1.453542325672e+00
1.609088120993e+01+j6.358066104402e-01
1.551389215041e+01+j1.557306420606e-02
1.504917312158e+01-j4.830626429482e-01
1.466044617159e+01-j9.008614363392e-01
1.432459507727e+01-j1.261448386953e+00
1.402640440116e+01-j1.579370716955e+00
1.375557840429e+01-j1.864038774488e+00
1.350498952906e+01-j2.121796887350e+00
1.326961195968e+01-j2.357077600611e+00
1.304585060251e+01-j2.573077393604e+00
1.283110616317e+01-j2.772168957583e+00
1.262348566773e+01-j2.956161721015e+00
1.242160516823e+01-j3.126471477299e+00
1.222445240363e+01-j3.284233685638e+00
1.203128937973e+01-j3.430380815477e+00
1.184158210122e+01-j3.565696131741e+00
1.165494913593e+01-j3.690851686031e+00
1.147112347624e+01-j3.806435504537e+00
1.128992394470e+01-j3.912971255566e+00
1.111123355369e+01-j4.010932601816e+00
1.093498300244e+01-j4.100753746732e+00
1.076113801660e+01-j4.182837225772e+00
1.058968959509e+01-j4.257559685364e+00
1.042064647866e+01-j4.325276181713e+00
1.025402933149e+01-j4.386323385306e+00
1.008986625396e+01-j4.441021973708e+00
9.928189336342e+00-j4.489678421445e+00
9.769032031010e+00-j4.532586342318e+00
9.612427170462e+00-j4.570027500359e+00
9.458405496575e+00-j4.602272576683e+00
</dep>
<dep ac.i(cy_1_2) frequency>
-2.014924766376e-26+j5.373715224619e-24
-4.666286860259e-26+j8.229421122860e-24
-8.640361602712e-26+j1.130022700027e-23
-1.423440433406e-25+j1.468033210916e-23
-2.188790053197e-25+j1.848698498807e-23
-3.224026287495e-25+j2.287191137432e-23
-4.622296655073e-25+j2.803836882754e-23
-6.520904059401e-25+j3.426762780918e-23
-9.126199304216e-25+j4.196168584332e-23
-1.275645193695e-24+j5.171497020565e-23
-1.791878918293e-24+j6.444015449858e-23
-2.545429504804e-24+j8.160050099799e-23
-3.682854525699e-24+j1.056657060992e-22
-5.475761900371e-24+j1.410744507081e-22
-8.468635610702e-24+j1.964613710754e-22
-1.387140910536e-23+j2.904476769417e-22
-2.477728777131e-23+j4.692056071789e-22
-5.083355106357e-23+j8.721335293718e-22
-1.319771372318e-22+j2.054560179330e-21
-4.580794148265e-22+j6.479367362700e-21
-4.963838093682e-22+j6.386998748171e-21
-1.691789457443e-22+j1.982301036338e-21
-7.720663522760e-23+j8.245682170403e-22
-4.463130484607e-23+j4.348284521672e-22
-2.968663834344e-23+j2.640343685240e-22
-2.158899049112e-23+j1.753990036600e-22
-1.668566066454e-23+j1.238993982455e-22
-1.347413032146e-23+j9.148619871846e-23
-1.124492236508e-23+j6.983950646951e-23
-9.627094533620e-24+j5.470829648431e-23
-8.410958998512e-24+j4.374234064692e-23
-7.470448781683e-24+j3.555885550903e-23
-6.725897247597e-24+j2.930225498541e-23
-6.124846094396e-24+j2.442068898158e-23
-5.631540252910e-24+j2.054558290575e-23
-5.220883449535e-24+j1.742335331491e-23
-4.874809972709e-24+j1.487501410472e-23
-4.580026149936e-24+j1.277139012632e-23
-4.326559360965e-24+j1.101741637773e-23
</dep>
<dep ac.s_2_1 frequency>
-1.337778384501e+00-j1.837959716936e+00
-2.326316651050e+00-j1.932213421474e+00
-3.146470780237e+00-j1.668145247610e+00
-3.770725629954e+00-j1.221759643267e+00
-4.234893986983e+00-j6.836968573924e-01
-4.575305304751e+00-j8.838400350975e-02
-4.812221505973e+00+j5.573040355761e-01
-4.947831710321e+00+j1.257029305516e+00
-4.967166194537e+00+j2.014220664679e+00
-4.840122335128e+00+j2.822550920634e+00
-4.526920025241e+00+j3.655455803570e+00
-3.991044577767e+00+j4.456506461468e+00
-3.221703885480e+00+j5.138118195771e+00
-2.258716003603e+00+j5.599308107388e+00
-1.200355237249e+00+j5.764118390152e+00
-1.772066138033e-01+j5.619840201730e+00
6.968490150328e-01+j5.223987474543e+00
1.361306379813e+00+j4.674010684227e+00
1.812028560851e+00+j4.066247851839e+00
2.080636521698e+00+j3.470863929836e+00
2.211196099567e+00+j2.927496865920e+00
2.245386735220e+00+j2.452261264113e+00
2.216523181015e+00+j2.046919197023e+00
2.148867196428e+00+j1.706018383782e+00
2.059104530859e+00+j1.421322816950e+00
1.958272874088e+00+j1.184177770101e+00
1.853452743251e+00+j9.865995509489e-01
1.749051038124e+00+j8.216706648473e-01
1.647709134759e+00+j6.835934825375e-01
1.550921331372e+00+j5.675956578052e-01
1.459447042515e+00+j4.697851564942e-01
1.373582067953e+00+j3.870006555105e-01
1.293335690407e+00+j3.166762970460e-01
1.218545591031e+00+j2.567267782406e-01
1.148951957242e+00+j2.054528778755e-01
1.084244891478e+00+j1.614651808154e-01
1.024094380197e+00+j1.236230942157e-01
9.681688877921e-01+j9.098631951177e-02
9.161465480536e-01+j6.277629496750e-02
</dep>
<dep ac.y_2_1 frequency>
4.620978662004e-02-j6.890809541646e-04
4.671702605089e-02-j1.050506748900e-03
4.744587094786e-02-j1.433314851190e-03
4.841652906659e-02-j1.846642274708e-03
4.965733492744e-02-j2.301664761238e-03
5.120693545115e-02-j2.812579241744e-03
5.311754073423e-02-j3.398049906415e-03
5.545978667509e-02-j4.083423349047e-03
5.833012795689e-02-j4.904254176656e-03
6.186235035489e-02-j5.912144850805e-03
6.624605307680e-02-j7.184855572138e-03
7.175744004277e-02-j8.844718690789e-03
7.881292895039e-02-j1.109425816679e-02
8.806747119019e-02-j1.429030098065e-02
1.006061456488e-01-j1.911279822709e-02
1.183436366383e-01-j2.699653768277e-02
1.449096426411e-01-j4.141665999494e-02
1.875440399554e-01-j7.259132663312e-02
2.569323270963e-01-j1.598927659187e-01
2.465176962883e-01-j4.666266729728e-01
-2.982592888146e-01-j4.202262893076e-01
-2.573036113465e-01-j1.172114358222e-01
-1.746547234655e-01-j4.287348803334e-02
-1.275081928475e-01-j1.928993392138e-02
-9.889071204983e-02-j9.557181631069e-03
-8.000826833122e-02-j4.816703884438e-03
-6.671979913015e-02-j2.244374804741e-03
-5.690476840605e-02-j7.418907806645e-04
-4.938226223413e-02+j1.820334051746e-04
-4.344738625556e-02+j7.709322263675e-04
-3.865508733605e-02+j1.155356737361e-03
-3.471121897391e-02+j1.409725497011e-03
-3.141389345177e-02+j1.578606331955e-03
-2.862009890885e-02+j1.689790797201e-03
-2.622578202661e-02+j1.761200876531e-03
-2.415347872442e-02+j1.804724753808e-03
-2.234436303319e-02+j1.828439209887e-03
-2.075298085559e-02+j1.837944801965e-03
-1.934366950992e-02+j1.837193596568e-03
</dep>
<dep ac.z_2_1 frequency>
-1.504250890106e+02-j6.228621146324e+02
-5.263145260487e+02-j1.110143128166e+03
-1.865345928005e+03-j1.509591741319e+03
-3.140134348707e+03+j9.428040040112e+02
-1.233814798149e+03+j1.830161337033e+03
-4.739824378137e+02+j1.435728909108e+03
-2.031335726170e+02+j1.128904209649e+03
-8.139858448880e+01+j9.249216602312e+02
-1.681655195560e+01+j7.827907194966e+02
2.143847981664e+01+j6.782733698334e+02
4.586311484170e+01+j5.979570739917e+02
6.228865700440e+01+j5.340697542440e+02
7.373816138213e+01+j4.818495147326e+02
8.191116182663e+01+j4.382282572931e+02
8.782649364767e+01+j4.011424402845e+02
9.212762817978e+01+j3.691528379241e+02
9.523893927168e+01+j3.412242571896e+02
9.745073081933e+01+j3.165922552511e+02
9.896792891325e+01+j2.946793679749e+02
9.993919950852e+01+j2.750406757564e+02
1.004750186549e+02+j2.573273856815e+02
1.006592529406e+02+j2.412618334434e+02
1.005567924513e+02+j2.266199299431e+02
1.002187082253e+02+j2.132185841558e+02
9.968581490183e+01+j2.009065275937e+02
9.899118104475e+01+j1.895575112028e+02
9.816193007430e+01+j1.790651871791e+02
9.722055369638e+01+j1.693392072190e+02
9.618588443768e+01+j1.603022121641e+02
9.507382600759e+01+j1.518874837726e+02
9.389790911342e+01+j1.440370944570e+02
9.266971978601e+01+j1.367004358022e+02
9.139923342988e+01+j1.298330382303e+02
9.009507835099e+01+j1.233956166128e+02
8.876474595343e+01+j1.173532927973e+02
8.741476018731e+01+j1.116749578028e+02
8.605081555120e+01+j1.063327451255e+02
8.467789059473e+01+j1.013015930703e+02
8.330034215401e+01+j9.655887889284e+01
</dep>
<dep ac.i(cy_2_1) frequency>
-2.014924766376e-26-j5.373715224619e-24
-4.666286860259e-26-j8.229421122860e-24
-8.640361602712e-26-j1.130022700027e-23
-1.423440433406e-25-j1.468033210916e-23
-2.188790053197e-25-j1.848698498807e-23
-3.224026287495e-25-j2.287191137432e-23
-4.622296655073e-25-j2.803836882754e-23
-6.520904059401e-25-j3.426762780918e-23
-9.126199304216e-25-j4.196168584332e-23
-1.275645193695e-24-j5.171497020565e-23
-1.791878918293e-24-j6.444015449858e-23
-2.545429504804e-24-j8.160050099799e-23
-3.682854525699e-24-j1.056657060992e-22
-5.475761900371e-24-j1.410744507081e-22
-8.468635610702e-24-j1.964613710754e-22
-1.387140910536e-23-j2.904476769417e-22
-2.477728777131e-23-j4.692056071789e-22
-5.083355106357e-23-j8.721335293718e-22
-1.319771372318e-22-j2.054560179330e-21
-4.580794148265e-22-j6.479367362700e-21
-4.963838093682e-22-j6.386998748171e-21
-1.691789457443e-22-j1.982301036338e-21
-7.720663522760e-23-j8.245682170403e-22
-4.463130484607e-23-j4.348284521672e-22
-2.968663834344e-23-j2.640343685240e-22
-2.158899049112e-23-j1.753990036600e-22
-1.668566066454e-23-j1.238993982455e-22
-1.347413032146e-23-j9.148619871846e-23
-1.124492236508e-23-j6.983950646951e-23
-9.627094533620e-24-j5.470829648431e-23
-8.410958998512e-24-j4.374234064692e-23
-7.470448781683e-24-j3.555885550903e-23
-6.725897247597e-24-j2.930225498541e-23
-6.124846094396e-24-j2.442068898158e-23
-5.631540252910e-24-j2.054558290575e-23
-5.220883449535e-24-j1.742335331491e-23
-4.874809972709e-24-j1.487501410472e-23
-4.580026149936e-24-j1.277139012632e-23
-4.326559360965e-24-j1.101741637773e-23
</dep>
<dep ac.s_2_2 frequency>
7.823157238870e-01-j5.278539313332e-02
7.979530142699e-01-j9.383225416173e-02
8.105807447640e-01-j1.426723428275e-01
8.192116791947e-01-j1.973724862109e-01
8.235541994799e-01-j2.573632375332e-01
8.229187547138e-01-j3.229334113397e-01
8.158140036736e-01-j3.946602576731e-01
7.997617065812e-01-j4.728970953148e-01
7.712203395777e-01-j5.571672528987e-01
