<Qucs Dataset 26.1.0>
<indep frequency 301>
1.000000000000e+02
1.023292992281e+02
1.047128548051e+02
1.071519305238e+02
1.096478196143e+02
1.122018454302e+02
1.148153621497e+02
1.174897554940e+02
1.202264434617e+02
1.230268770812e+02
1.258925411794e+02
1.288249551693e+02
1.318256738556e+02
1.348962882592e+02
1.380384264603e+02
1.412537544623e+02
1.445439770746e+02
1.479108388168e+02
1.513561248436e+02
1.548816618912e+02
1.584893192461e+02
1.621810097359e+02
1.659586907438e+02
1.698243652462e+02
1.737800828749e+02
1.778279410039e+02
1.819700858610e+02
1.862087136663e+02
1.905460717963e+02
1.949844599758e+02
1.995262314969e+02
2.041737944670e+02
2.089296130854e+02
2.137962089502e+02
2.187761623950e+02
2.238721138568e+02
2.290867652768e+02
2.344228815320e+02
2.398832919019e+02
2.454708915685e+02
2.511886431510e+02
2.570395782769e+02
2.630267991895e+02
2.691534803927e+02
2.754228703338e+02
2.818382931264e+02
2.884031503127e+02
2.951209226666e+02
3.019951720402e+02
3.090295432514e+02
3.162277660168e+02
3.235936569296e+02
3.311311214826e+02
3.388441561392e+02
3.467368504525e+02
3.548133892336e+02
3.630780547701e+02
3.715352290972e+02
3.801893963206e+02
3.890451449943e+02
3.981071705535e+02
4.073802778041e+02
4.168693834703e+02
4.265795188016e+02
4.365158322402e+02
4.466835921510e+02
4.570881896149e+02
4.677351412872e+02
4.786300923226e+02
4.897788193684e+02
5.011872336273e+02
5.128613839914e+02
5.248074602498e+02
5.370317963703e+02
5.495408738576e+02
5.623413251903e+02
5.754399373372e+02
5.888436553556e+02
6.025595860744e+02
6.165950018615e+02
6.309573444802e+02
6.456542290347e+02
6.606934480076e+02
6.760829753920e+02
6.918309709189e+02
7.079457843841e+02
7.244359600750e+02
7.413102413009e+02
7.585775750292e+02
7.762471166287e+02
7.943282347243e+02
8.128305161641e+02
8.317637711027e+02
8.511380382024e+02
8.709635899561e+02
8.912509381337e+02
9.120108393559e+02
9.332543007970e+02
9.549925860214e+02
9.772372209558e+02
1.000000000000e+03
1.023292992281e+03
1.047128548051e+03
1.071519305238e+03
1.096478196143e+03
1.122018454302e+03
1.148153621497e+03
1.174897554940e+03
1.202264434617e+03
1.230268770812e+03
1.258925411794e+03
1.288249551693e+03
1.318256738556e+03
1.348962882592e+03
1.380384264603e+03
1.412537544623e+03
1.445439770746e+03
1.479108388168e+03
1.513561248436e+03
1.548816618912e+03
1.584893192461e+03
1.621810097359e+03
1.659586907438e+03
1.698243652462e+03
1.737800828749e+03
1.778279410039e+03
1.819700858610e+03
1.862087136663e+03
1.905460717963e+03
1.949844599758e+03
1.995262314969e+03
2.041737944670e+03
2.089296130854e+03
2.137962089502e+03
2.187761623950e+03
2.238721138568e+03
2.290867652768e+03
2.344228815320e+03
2.398832919019e+03
2.454708915685e+03
2.511886431510e+03
2.570395782769e+03
2.630267991895e+03
2.691534803927e+03
2.754228703338e+03
2.818382931264e+03
2.884031503127e+03
2.951209226666e+03
3.019951720402e+03
3.090295432514e+03
3.162277660168e+03
3.235936569296e+03
3.311311214826e+03
3.388441561392e+03
3.467368504525e+03
3.548133892336e+03
3.630780547701e+03
3.715352290972e+03
3.801893963206e+03
3.890451449943e+03
3.981071705535e+03
4.073802778041e+03
4.168693834703e+03
4.265795188016e+03
4.365158322402e+03
4.466835921510e+03
4.570881896149e+03
4.677351412872e+03
4.786300923226e+03
4.897788193684e+03
5.011872336273e+03
5.128613839914e+03
5.248074602498e+03
5.370317963702e+03
5.495408738576e+03
5.623413251903e+03
5.754399373372e+03
5.888436553556e+03
6.025595860744e+03
6.165950018615e+03
6.309573444802e+03
6.456542290347e+03
6.606934480076e+03
6.760829753920e+03
6.918309709189e+03
7.079457843841e+03
7.244359600750e+03
7.413102413009e+03
7.585775750292e+03
7.762471166287e+03
7.943282347243e+03
8.128305161641e+03
8.317637711027e+03
8.511380382024e+03
8.709635899561e+03
8.912509381337e+03
9.120108393559e+03
9.332543007970e+03
9.549925860214e+03
9.772372209558e+03
1.000000000000e+04
1.023292992281e+04
1.047128548051e+04
1.071519305238e+04
1.096478196143e+04
1.122018454302e+04
1.148153621497e+04
1.174897554940e+04
1.202264434617e+04
1.230268770812e+04
1.258925411794e+04
1.288249551693e+04
1.318256738556e+04
1.348962882592e+04
1.380384264603e+04
1.412537544623e+04
1.445439770746e+04
1.479108388168e+04
1.513561248436e+04
1.548816618912e+04
1.584893192461e+04
1.621810097359e+04
1.659586907438e+04
1.698243652462e+04
1.737800828749e+04
1.778279410039e+04
1.819700858610e+04
1.862087136663e+04
1.905460717963e+04
1.949844599758e+04
1.995262314969e+04
2.041737944670e+04
2.089296130854e+04
2.137962089502e+04
2.187761623950e+04
2.238721138568e+04
2.290867652768e+04
2.344228815320e+04
2.398832919019e+04
2.454708915685e+04
2.511886431510e+04
2.570395782769e+04
2.630267991895e+04
2.691534803927e+04
2.754228703338e+04
2.818382931264e+04
2.884031503127e+04
2.951209226666e+04
3.019951720402e+04
3.090295432514e+04
3.162277660168e+04
3.235936569296e+04
3.311311214826e+04
3.388441561392e+04
3.467368504525e+04
3.548133892336e+04
3.630780547701e+04
3.715352290972e+04
3.801893963206e+04
3.890451449943e+04
3.981071705535e+04
4.073802778041e+04
4.168693834703e+04
4.265795188016e+04
4.365158322402e+04
4.466835921510e+04
4.570881896149e+04
4.677351412872e+04
4.786300923226e+04
4.897788193684e+04
5.011872336273e+04
5.128613839914e+04
5.248074602498e+04
5.370317963702e+04
5.495408738576e+04
5.623413251903e+04
5.754399373372e+04
5.888436553556e+04
6.025595860744e+04
6.165950018615e+04
6.309573444802e+04
6.456542290346e+04
6.606934480076e+04
6.760829753920e+04
6.918309709189e+04
7.079457843841e+04
7.244359600750e+04
7.413102413009e+04
7.585775750292e+04
7.762471166287e+04
7.943282347243e+04
8.128305161641e+04
8.317637711027e+04
8.511380382024e+04
8.709635899561e+04
8.912509381337e+04
9.120108393559e+04
9.332543007970e+04
9.549925860214e+04
9.772372209558e+04
1.000000000000e+05
</indep>
<dep ac.v(lc_branch) frequency>
9.527485500377e-01-j2.851742818669e-03
9.527658812172e-01-j2.918275843440e-03
9.527840298498e-01-j2.986366309163e-03
9.528030345246e-01-j3.056051043907e-03
9.528229356554e-01-j3.127367773051e-03
9.528437755675e-01-j3.200355143023e-03
9.528655985883e-01-j3.275052745791e-03
9.528884511423e-01-j3.351501144144e-03
9.529123818509e-01-j3.429741897804e-03
9.529374416368e-01-j3.509817590386e-03
9.529636838332e-01-j3.591771857268e-03
9.529911642985e-01-j3.675649414389e-03
9.530199415366e-01-j3.761496088038e-03
9.530500768227e-01-j3.849358845667e-03
9.530816343352e-01-j3.939285827774e-03
9.531146812941e-01-j4.031326380918e-03
9.531492881063e-01-j4.125531091917e-03
9.531855285168e-01-j4.221951823276e-03
9.532234797688e-01-j4.320641749918e-03
9.532632227704e-01-j4.421655397282e-03
9.533048422696e-01-j4.525048680850e-03
9.533484270380e-01-j4.630878947178e-03
9.533940700633e-01-j4.739205016518e-03
9.534418687512e-01-j4.850087227098e-03
9.534919251368e-01-j4.963587481167e-03
9.535443461068e-01-j5.079769292882e-03
9.535992436321e-01-j5.198697838144e-03
9.536567350122e-01-j5.320440006498e-03
9.537169431310e-01-j5.445064455196e-03
9.537799967257e-01-j5.572641665555e-03
9.538460306686e-01-j5.703244001734e-03
9.539151862627e-01-j5.836945772076e-03
9.539876115521e-01-j5.973823293156e-03
9.540634616476e-01-j6.113954956690e-03
9.541428990683e-01-j6.257421299491e-03
9.542260941007e-01-j6.404305076628e-03
9.543132251747e-01-j6.554691338007e-03
9.544044792590e-01-j6.708667508562e-03
9.545000522766e-01-j6.866323472287e-03
9.546001495398e-01-j7.027751660341e-03
9.547049862087e-01-j7.193047143493e-03
9.548147877716e-01-j7.362307729158e-03
9.549297905497e-01-j7.535634063345e-03
9.550502422286e-01-j7.713129737803e-03
9.551764024149e-01-j7.894901402723e-03
9.553085432230e-01-j8.081058885348e-03
9.554469498906e-01-j8.271715314882e-03
9.555919214269e-01-j8.466987254122e-03
9.557437712931e-01-j8.666994838249e-03
9.559028281186e-01-j8.871861921279e-03
9.560694364552e-01-j9.081716230682e-03
9.562439575691e-01-j9.296689530729e-03
9.564267702754e-01-j9.516917795189e-03
9.566182718167e-01-j9.742541389997e-03
9.568188787870e-01-j9.973705266622e-03
9.570290281060e-01-j1.021055916688e-02
9.572491780446e-01-j1.045325783999e-02
9.574798093055e-01-j1.070196127284e-02
9.577214261623e-01-j1.095683493422e-02
9.579745576607e-01-j1.121805003437e-02
9.582397588839e-01-j1.148578380056e-02
9.585176122893e-01-j1.176021977032e-02
9.588087291175e-01-j1.204154810326e-02
9.591137508804e-01-j1.232996591318e-02
9.594333509319e-01-j1.262567762178e-02
9.597682361278e-01-j1.292889533584e-02
9.601191485790e-01-j1.323983924946e-02
9.604868675052e-01-j1.355873807356e-02
9.608722111954e-01-j1.388582949450e-02
9.612760390816e-01-j1.422136066442e-02
9.616992539337e-01-j1.456558872558e-02
9.621428041839e-01-j1.491878137163e-02
9.626076863891e-01-j1.528121744870e-02
9.630949478400e-01-j1.565318759957e-02
9.636056893291e-01-j1.603499495460e-02
9.641410680859e-01-j1.642695587321e-02
9.647023008941e-01-j1.682940074017e-02
9.652906674013e-01-j1.724267482147e-02
9.659075136366e-01-j1.766713918479e-02
9.665542557509e-01-j1.810317169013e-02
9.672323839965e-01-j1.855116805693e-02
9.679434669641e-01-j1.901154301420e-02
9.686891560959e-01-j1.948473154130e-02
9.694711904978e-01-j1.997119020741e-02
9.702914020720e-01-j2.047139861869e-02
9.711517209965e-01-j2.098586098322e-02
9.720541815797e-01-j2.151510780443e-02
9.730009285185e-01-j2.205969771548e-02
9.739942235951e-01-j2.262021946762e-02
9.750364528482e-01-j2.319729408777e-02
9.761301342578e-01-j2.379157722154e-02
9.772779259891e-01-j2.440376168022e-02
9.784826352419e-01-j2.503458021190e-02
9.797472277609e-01-j2.568480851965e-02
9.810748380633e-01-j2.635526855185e-02
9.824687804506e-01-j2.704683209316e-02
9.839325608746e-01-j2.776042468745e-02
9.854698897381e-01-j2.849702992842e-02
9.870846957176e-01-j2.925769415726e-02
9.887811407055e-01-j3.004353161231e-02
9.905636359807e-01-j3.085573008056e-02
9.924368597286e-01-j3.169555710782e-02
9.944057760435e-01-j3.256436683118e-02
9.964756555656e-01-j3.346360750622e-02
9.986520979194e-01-j3.439482981038e-02
1.000941056142e+00-j3.535969601572e-02
1.003348863309e+00-j3.635999013632e-02
1.005882261605e+00-j3.739762917060e-02
1.008548434089e+00-j3.847467557593e-02
1.011355039466e+00-j3.959335113232e-02
1.014310250210e+00-j4.075605237523e-02
1.017422794398e+00-j4.196536780422e-02
1.020702001721e+00-j4.322409710525e-02
1.024157854135e+00-j4.453527266133e-02
1.027801041737e+00-j4.590218366917e-02
1.031643024492e+00-j4.732840323003e-02
1.035696100540e+00-j4.881781884287e-02
1.039973481936e+00-j5.037466679905e-02
1.044489378755e+00-j5.200357106145e-02
1.049259092691e+00-j5.370958731187e-02
1.054299121404e+00-j5.549825296987e-02
1.059627275086e+00-j5.737564413048e-02
1.065262806957e+00-j5.934844054084e-02
1.071226559643e+00-j6.142399994507e-02
1.077541129759e+00-j6.361044337965e-02
1.084231053363e+00-j6.591675330969e-02
1.091323015427e+00-j6.835288687263e-02
1.098846087017e+00-j7.092990695749e-02
1.106831994517e+00-j7.366013441547e-02
1.115315426043e+00-j7.655732540141e-02
1.124334381110e+00-j7.963687871838e-02
1.133930570813e+00-j8.291607912948e-02
1.144149877122e+00-j8.641438396971e-02
1.155042881654e+00-j9.015376211910e-02
1.166665476345e+00-j9.415909659019e-02
1.179079570993e+00-j9.845866478087e-02
1.192353915855e+00-j1.030847140347e-01
1.206565061351e+00-j1.080741547912e-01
1.221798481840e+00-j1.134693996436e-01
1.238149896494e+00-j1.193193845238e-01
1.255726827932e+00-j1.256808186655e-01
1.274650448870e+00-j1.326197238552e-01
1.295057779131e+00-j1.402133420697e-01
1.317104310729e+00-j1.485525157205e-01
1.340967158131e+00-j1.577446790024e-01
1.366848855593e+00-j1.679176460585e-01
1.394981954827e+00-j1.792244473614e-01
1.425634616165e+00-j1.918495580970e-01
1.459117436612e+00-j2.060169937414e-01
1.495791820910e+00-j2.220009371792e-01
1.536080278339e+00-j2.401398374794e-01
1.580479118082e+00-j2.608553279024e-01
1.629574114105e+00-j2.846779212992e-01
1.684059799449e+00-j3.122823697343e-01
1.744763085907e+00-j3.445370096425e-01
1.812671786434e+00-j3.825736653211e-01
1.888968114407e+00-j4.278882751092e-01
1.975065833575e+00-j4.824882255405e-01
2.072646289679e+00-j5.491119513816e-01
2.183680482357e+00-j6.315622816821e-01
2.310405696181e+00-j7.352216111274e-01
2.455182113589e+00-j8.678609293954e-01
2.620054198782e+00-j1.040924025793e+00
2.805603824374e+00-j1.271561776089e+00
3.008117529937e+00-j1.585748256787e+00
3.212780217359e+00-j2.022495121126e+00
3.377878409060e+00-j2.637076150593e+00
3.401491228980e+00-j3.492318982914e+00
3.071050973843e+00-j4.600255760215e+00
2.077987467148e+00-j5.747804856010e+00
3.524322462107e-01-j6.331499657468e+00
-1.461245545808e+00-j5.840986861379e+00
-2.576303399411e+00-j4.632489714771e+00
-2.931424303910e+00-j3.399147722191e+00
-2.861146477992e+00-j2.447267353065e+00
-2.628172839693e+00-j1.780052732961e+00
-2.358952454105e+00-j1.321853265154e+00
-2.102326939477e+00-j1.004145521349e+00
-1.873386163865e+00-j7.793352515006e-01
-1.674160350916e+00-j6.165704206406e-01
-1.502163848993e+00-j4.960631309268e-01
-1.353724737118e+00-j4.049832320270e-01
-1.225208151617e+00-j3.348534124765e-01
-1.113409740666e+00-j2.799517253036e-01
-1.015631777491e+00-j2.363325964783e-01
-9.296464028948e-01-j2.012193091475e-01
-8.536265140834e-01-j1.726202332076e-01
-7.860747371326e-01-j1.490815961980e-01
-7.257607432523e-01-j1.295250383941e-01
-6.716692206036e-01-j1.131388157674e-01
-6.229578843194e-01-j9.930359965234e-02
-5.789240156489e-01-j8.754100279680e-02
-5.389779237354e-01-j7.747729935432e-02
-5.026219042507e-01-j6.881747317339e-02
-4.694335187077e-01-j6.132639731611e-02
-4.390522573416e-01-j5.481500983082e-02
-4.111688516915e-01-j4.913003811568e-02
-3.855166667901e-01-j4.414627604639e-02
-3.618647313411e-01-j3.976071954118e-02
-3.400120636897e-01-j3.588807027590e-02
-3.197830278372e-01-j3.245725719550e-02
-3.010235124185e-01-j2.940872264595e-02
-2.835977706011e-01-j2.669228824060e-02
-2.673857935255e-01-j2.426546410087e-02
-2.522811166686e-01-j2.209209995890e-02
-2.381889792540e-01-j2.014130188357e-02
-2.250247729826e-01-j1.838655689546e-02
-2.127127289885e-01-j1.680502140377e-02
-2.011848018555e-01-j1.537693957957e-02
-1.903797173638e-01-j1.408516542432e-02
-1.802421568636e-01-j1.291476807595e-02
-1.707220561262e-01-j1.185270430228e-02
-1.617740004994e-01-j1.088754551283e-02
-1.533567013871e-01-j1.000924923165e-02
-1.454325416604e-01-j9.208967002619e-03
-1.379671796997e-01-j8.478882285335e-03
-1.309292034796e-01-j7.812073146348e-03
-1.242898275070e-01-j7.202395536076e-03
-1.180226265710e-01-j6.644383724771e-03
-1.121033012123e-01-j6.133165095985e-03
-1.065094706054e-01-j5.664386997436e-03
-1.012204891970e-01-j5.234153753319e-03
-9.621728399072e-02-j4.838972269133e-03
-9.148220982063e-02-j4.475704925953e-03
-8.699892033912e-02-j4.141528677971e-03
-8.275225276652e-02-j3.833899444868e-03
-7.872812472034e-02-j3.550521036678e-03
-7.491344167253e-02-j3.289317969376e-03
-7.129601377852e-02-j3.048411629312e-03
-6.786448098805e-02-j2.826099327530e-03
-6.460824548990e-02-j2.620835854170e-03
-6.151741066427e-02-j2.431217200993e-03
-5.858272582120e-02-j2.255966168518e-03
-5.579553609308e-02-j2.093919615062e-03
-5.314773692684e-02-j1.944017139353e-03
-5.063173268875e-02-j1.805291017503e-03
-4.824039895229e-02-j1.676857239749e-03
-4.596704809056e-02-j1.557907513378e-03
-4.380539783810e-02-j1.447702116110e-03
-4.174954252564e-02-j1.345563499448e-03
-3.979392672437e-02-j1.250870554635e-03
-3.793332106588e-02-j1.163053465012e-03
-3.616280002949e-02-j1.081589078260e-03
-3.447772151106e-02-j1.005996740304e-03
-3.287370800749e-02-j9.358345398493e-04
-3.134662926847e-02-j8.706959187250e-04
-2.989258628241e-02-j8.102066086018e-04
-2.850789647737e-02-j7.540218593419e-04
-2.718908002973e-02-j7.018239282990e-04
-2.593284718410e-02-j6.533198034506e-04
-2.473608649764e-02-j6.082391363435e-04
-2.359585393034e-02-j5.663323635498e-04
-2.250936271043e-02-j5.273689977130e-04
-2.147397391087e-02-j4.911360713502e-04
-2.048718767880e-02-j4.574367184177e-04
-1.954663506544e-02-j4.260888802610e-04
-1.865007040861e-02-j3.969241240032e-04
-1.779536422439e-02-j3.697865626801e-04
-1.698049656843e-02-j3.445318675532e-04
-1.620355083099e-02-j3.210263640123e-04
-1.546270793265e-02-j2.991462033623e-04
-1.475624089091e-02-j2.787766035648e-04
-1.408250973012e-02-j2.598111526968e-04
-1.343995670971e-02-j2.421511695091e-04
-1.282710184772e-02-j2.257051160145e-04
-1.224253871854e-02-j2.103880575285e-04
-1.168493050555e-02-j1.961211660251e-04
-1.115300629078e-02-j1.828312630619e-04
-1.064555756538e-02-j1.704503988841e-04
-1.016143494572e-02-j1.589154646291e-04
-9.699545081356e-03-j1.481678348426e-04
-9.258847741908e-03-j1.381530377683e-04
-8.838353071207e-03-j1.288204511048e-04
-8.437118997681e-03-j1.201230211320e-04
-8.054248790908e-03-j1.120170032943e-04
-7.688888754996e-03-j1.044617224968e-04
-7.340226050114e-03-j9.741935152596e-05
-7.007486634147e-03-j9.085470614047e-05
-6.689933317016e-03-j8.473505550621e-05
-6.386863920736e-03-j7.902994676139e-05
-6.097609538775e-03-j7.371104260079e-05
-5.821532888722e-03-j6.875197086188e-05
-5.558026752691e-03-j6.412818518030e-05
-5.306512500253e-03-j5.981683585960e-05
-5.066438689063e-03-j5.579665017053e-05
-4.837279738648e-03-j5.204782135909e-05
-4.618534673139e-03-j4.855190570144e-05
-4.409725928997e-03-j4.529172699674e-05
-4.210398224045e-03-j4.225128793800e-05
-4.020117484342e-03-j3.941568784555e-05
-3.838469825683e-03-j3.677104628848e-05
-3.665060586673e-03-j3.430443215665e-05
-3.499513410547e-03-j3.200379778023e-05
-3.341469373062e-03-j2.985791772493e-05
-3.190586153972e-03-j2.785633191984e-05
-3.046537249708e-03-j2.598929280120e-05
-2.909011225086e-03-j2.424771617959e-05
-2.777711001936e-03-j2.262313556040e-05
-2.652353182719e-03-j2.110765966772e-05
-2.532667407278e-03-j1.969393294082e-05
-2.418395740992e-03-j1.837509878951e-05
</dep>
<dep ac.v(vin) frequency>
1.000000000000e+00+j0.000000000000e+00
1.000000000000e+00+j0.000000000000e+00
1.000000000000e+00+j0.000000000000e+00
1.000000000000e+00+j0.000000000000e+00
1.000000000000e+00+j0.000000000000e+00
1.000000000000e+00+j0.000000000000e+00
1.000000000000e+00+j0.000000000000e+00
1.000000000000e+00+j0.000000000000e+00
1.000000000000e+00+j0.000000000000e+00
1.000000000000e+00+j0.000000000000e+00
1.000000000000e+00+j0.000000000000e+00
1.000000000000e+00+j0.000000000000e+00
1.000000000000e+00+j0.000000000000e+00
1.000000000000e+00+j0.000000000000e+00
1.000000000000e+00+j0.000000000000e+00
1.000000000000e+00+j0.000000000000e+00
1.000000000000e+00+j0.000000000000e+00
1.000000000000e+00+j0.000000000000e+00
1.000000000000e+00+j0.000000000000e+00
1.000000000000e+00+j0.000000000000e+00
1.000000000000e+00+j0.000000000000e+00
1.000000000000e+00+j0.000000000000e+00
1.000000000000e+00+j0.000000000000e+00
1.000000000000e+00+j0.000000000000e+00
1.000000000000e+00+j0.000000000000e+00
1.000000000000e+00+j0.000000000000e+00
1.000000000000e+00+j0.000000000000e+00
1.000000000000e+00+j0.000000000000e+00
1.000000000000e+00+j0.000000000000e+00
1.000000000000e+00+j0.000000000000e+00
1.000000000000e+00+j0.000000000000e+00
1.000000000000e+00+j0.000000000000e+00
1.000000000000e+00+j0.000000000000e+00
1.000000000000e+00+j0.000000000000e+00
1.000000000000e+00+j0.000000000000e+00
1.000000000000e+00+j0.000000000000e+00
1.000000000000e+00+j0.000000000000e+00
1.000000000000e+00+j0.000000000000e+00
1.000000000000e+00+j0.000000000000e+00
1.000000000000e+00+j0.000000000000e+00
1.000000000000e+00+j0.000000000000e+00
1.000000000000e+00+j0.000000000000e+00
1.000000000000e+00+j0.000000000000e+00
1.000000000000e+00+j0.000000000000e+00
1.000000000000e+00+j0.000000000000e+00
1.000000000000e+00+j0.000000000000e+00
1.000000000000e+00+j0.000000000000e+00
1.000000000000e+00+j0.000000000000e+00
1.000000000000e+00+j0.000000000000e+00
1.000000000000e+00+j0.000000000000e+00
1.000000000000e+00+j0.000000000000e+00
1.000000000000e+00+j0.000000000000e+00
1.000000000000e+00+j0.000000000000e+00
1.000000000000e+00+j0.000000000000e+00
1.000000000000e+00+j0.000000000000e+00
1.000000000000e+00+j0.000000000000e+00
1.000000000000e+00+j0.000000000000e+00
1.000000000000e+00+j0.000000000000e+00
