<Qucs Dataset 1.0.7>
<indep I_SWEEP 25>
  +0.00000000000000000000e+00
  +1.00000000000000002082e-03
  +2.00000000000000004163e-03
  +3.00000000000000006245e-03
  +4.00000000000000008327e-03
  +5.00000000000000010408e-03
  +6.00000000000000012490e-03
  +7.00000000000000014572e-03
  +8.00000000000000016653e-03
  +9.00000000000000105471e-03
  +1.00000000000000002082e-02
  +1.09999999999999993616e-02
  +1.20000000000000002498e-02
  +1.30000000000000011380e-02
  +1.40000000000000002914e-02
  +1.49999999999999994449e-02
  +1.60000000000000003331e-02
  +1.70000000000000012212e-02
  +1.80000000000000021094e-02
  +1.89999999999999995282e-02
  +2.00000000000000004163e-02
  +2.10000000000000013045e-02
  +2.19999999999999987232e-02
  +2.29999999999999996114e-02
  +2.40000000000000004996e-02
</indep>
<dep V_SUPPLY_24V.I I_SWEEP>
  -2.39796173252735196266e-05
  -1.02313033921166995389e-03
  -2.02228106109806704885e-03
  -3.02143178298446349328e-03
  -4.02058250487085950403e-03
  -5.01973322675725638214e-03
  -6.01888394864365239290e-03
  -7.01803467053004927101e-03
  -8.01718539241644614912e-03
  -9.01633611430284302724e-03
  -1.00154868361892399053e-02
  -1.10146375580756350487e-02
  -1.20137882799620319269e-02
  -1.30129390018484305397e-02
  -1.40120897237348256831e-02
  -1.50112404456212208265e-02
  -1.60103911675076177046e-02
  -1.70095418893940163174e-02
  -1.80086926112804149303e-02
  -1.90078433331668066042e-02
  -2.00069940550532052170e-02
  -2.10061447769396038299e-02
  -2.20052954988259955038e-02
  -2.30044462207123941166e-02
  -2.40035969425987927295e-02
</dep>
<dep _net1.V I_SWEEP>
  +2.03826747264825060280e-02
  +8.69660788329920109163e-01
  +1.71893890193335807659e+00
  +2.56821701553679559993e+00
  +3.41749512914023290122e+00
  +4.26677324274367109069e+00
  +5.11605135634710883608e+00
  +5.96532946995054658146e+00
  +6.81460758355398343866e+00
  +7.66388569715742207222e+00
  +8.51316381076085981761e+00
  +9.36244192436429578663e+00
  +1.02117200379677353084e+01
  +1.10609981515711730538e+01
  +1.19102762651746107991e+01
  +1.27595543787780467682e+01
  +1.36088324923814862899e+01
  +1.44581106059849240353e+01
  +1.53073887195883617807e+01
  +1.61566668331917995260e+01
  +1.70059449467952354951e+01
  +1.78552230603986750168e+01
  +1.87045011740021109858e+01
  +1.95537792876055469549e+01
  +2.04030574012089864766e+01
</dep>
<dep _net0.V I_SWEEP>
  +2.40000000000000000000e+01
  +2.40000000000000000000e+01
  +2.40000000000000000000e+01
  +2.40000000000000000000e+01
  +2.40000000000000000000e+01
  +2.40000000000000000000e+01
  +2.40000000000000000000e+01
  +2.40000000000000000000e+01
  +2.40000000000000000000e+01
  +2.40000000000000000000e+01
  +2.40000000000000000000e+01
  +2.40000000000000000000e+01
  +2.40000000000000000000e+01
  +2.40000000000000000000e+01
  +2.40000000000000000000e+01
  +2.40000000000000000000e+01
  +2.40000000000000000000e+01
  +2.40000000000000000000e+01
  +2.40000000000000000000e+01
  +2.40000000000000000000e+01
  +2.40000000000000000000e+01
  +2.40000000000000000000e+01
  +2.40000000000000000000e+01
  +2.40000000000000000000e+01
  +2.40000000000000000000e+01
</dep>
<dep VDISPLAY.V I_SWEEP>
  +1.19898086626367660068e-02
  +5.11565169605835312616e-01
  +1.01114053054903396678e+00
  +1.51071589149223250992e+00
  +2.01029125243543083101e+00
  +2.50986661337862981824e+00
  +3.00944197432182836138e+00
  +3.50901733526502690452e+00
  +4.00859269620822455948e+00
  +4.50816805715142443489e+00
  +5.00774341809462253394e+00
  +5.50731877903782063299e+00
  +6.00689413998101962022e+00
  +6.50646950092421860745e+00
  +7.00604486186741670650e+00
  +7.50562022281061480555e+00
  +8.00519558375381379278e+00
  +8.50477094469701278001e+00
  +9.00434630564021176724e+00
  +9.50392166658341075447e+00
  +1.00034970275266079653e+01
  +1.05030723884698069526e+01
  +1.10026477494130041634e+01
  +1.15022231103562031507e+01
  +1.20017984712994021379e+01
</dep>
<dep VN.V I_SWEEP>
  +1.79847129939551507449e-02
  +7.67347754408753024435e-01
  +1.51671079582355128323e+00
  +2.26607383723834887590e+00
  +3.01543687865314691265e+00
  +3.76479992006794494941e+00
  +4.51416296148274298616e+00
  +5.26352600289754146701e+00
  +6.01288904431233817149e+00
  +6.76225208572713665234e+00
  +7.51161512714193424500e+00
  +8.26097816855673094949e+00
  +9.01034120997153031851e+00
  +9.75970425138632791118e+00
  +1.05090672928011272802e+01
  +1.12584303342159230965e+01
  +1.20077933756307224655e+01
  +1.27571564170455200582e+01
  +1.35065194584603176509e+01
  +1.42558824998751170199e+01
  +1.50052455412899128362e+01
  +1.57546085827047122052e+01
  +1.65039716241195080215e+01
  +1.72533346655343073905e+01
  +1.80026977069491067596e+01
</dep>
