<Qucs Dataset 26.1.0>
<indep dc1.v(vtop) 1>
2.038267000000e-02+j0.000000000000e+00
</indep>
<indep dc1.v(v_in) 1>
1.798471000000e-02+j0.000000000000e+00
</indep>
<indep dc1.v(v_mid) 1>
1.198981000000e-02+j0.000000000000e+00
</indep>
<indep sw1.i(i-sweep) 25>
0.000000000000e+00
1.000000000000e-03
2.000000000000e-03
3.000000000000e-03
4.000000000000e-03
5.000000000000e-03
6.000000000000e-03
7.000000000000e-03
8.000000000000e-03
9.000000000000e-03
1.000000000000e-02
1.100000000000e-02
1.200000000000e-02
1.300000000000e-02
1.400000000000e-02
1.500000000000e-02
1.600000000000e-02
1.700000000000e-02
1.800000000000e-02
1.900000000000e-02
2.000000000000e-02
2.100000000000e-02
2.200000000000e-02
2.300000000000e-02
2.400000000000e-02
</indep>
<dep sw1.v(vtop) sw1.i(i-sweep)>
2.038267472648e-02
8.696607883299e-01
1.718938901933e+00
2.568217015537e+00
3.417495129140e+00
4.266773242744e+00
5.116051356347e+00
5.965329469951e+00
6.814607583554e+00
7.663885697157e+00
8.513163810761e+00
9.362441924364e+00
1.021172003797e+01
1.106099815157e+01
1.191027626517e+01
1.275955437878e+01
1.360883249238e+01
1.445811060598e+01
1.530738871959e+01
1.615666683319e+01
1.700594494680e+01
1.785522306040e+01
1.870450117400e+01
1.955377928761e+01
2.040305740121e+01
</dep>
<dep sw1.v(v_in) sw1.i(i-sweep)>
1.798471299396e-02
7.673477544088e-01
1.516710795824e+00
2.266073837238e+00
3.015436878653e+00
3.764799920068e+00
4.514162961483e+00
5.263526002898e+00
6.012889044312e+00
6.762252085727e+00
7.511615127142e+00
8.260978168557e+00
9.010341209972e+00
9.759704251386e+00
1.050906729280e+01
1.125843033422e+01
1.200779337563e+01
1.275715641705e+01
1.350651945846e+01
1.425588249988e+01
1.500524554129e+01
1.575460858270e+01
1.650397162412e+01
1.725333466553e+01
1.800269770695e+01
</dep>
<dep sw1.v(v_mid) sw1.i(i-sweep)>
1.198980866264e-02
5.115651696058e-01
1.011140530549e+00
1.510715891492e+00
2.010291252435e+00
2.509866613379e+00
3.009441974322e+00
3.509017335265e+00
4.008592696208e+00
4.508168057151e+00
5.007743418095e+00
5.507318779038e+00
6.006894139981e+00
6.506469500924e+00
7.006044861867e+00
7.505620222811e+00
8.005195583754e+00
8.504770944697e+00
9.004346305640e+00
9.503921666583e+00
1.000349702753e+01
1.050307238847e+01
1.100264774941e+01
1.150222311036e+01
1.200179847130e+01
</dep>
