<Qucs Dataset 26.1.0>
<indep v(if) 1>
1.045496000000e-08+j0.000000000000e+00
</indep>
<indep v(neg) 1>
9.701490000000e+00+j0.000000000000e+00
</indep>
<indep v(pos) 1>
9.701490000000e+00+j0.000000000000e+00
</indep>
<indep frequency 129>
0.000000000000e+00
7.812500000000e+03
1.562500000000e+04
2.343750000000e+04
3.125000000000e+04
3.906250000000e+04
4.687500000000e+04
5.468750000000e+04
6.250000000000e+04
7.031250000000e+04
7.812500000000e+04
8.593750000000e+04
9.375000000000e+04
1.015625000000e+05
1.093750000000e+05
1.171875000000e+05
1.250000000000e+05
1.328125000000e+05
1.406250000000e+05
1.484375000000e+05
1.562500000000e+05
1.640625000000e+05
1.718750000000e+05
1.796875000000e+05
1.875000000000e+05
1.953125000000e+05
2.031250000000e+05
2.109375000000e+05
2.187500000000e+05
2.265625000000e+05
2.343750000000e+05
2.421875000000e+05
2.500000000000e+05
2.578125000000e+05
2.656250000000e+05
2.734375000000e+05
2.812500000000e+05
2.890625000000e+05
2.968750000000e+05
3.046875000000e+05
3.125000000000e+05
3.203125000000e+05
3.281250000000e+05
3.359375000000e+05
3.437500000000e+05
3.515625000000e+05
3.593750000000e+05
3.671875000000e+05
3.750000000000e+05
3.828125000000e+05
3.906250000000e+05
3.984375000000e+05
4.062500000000e+05
4.140625000000e+05
4.218750000000e+05
4.296875000000e+05
4.375000000000e+05
4.453125000000e+05
4.531250000000e+05
4.609375000000e+05
4.687500000000e+05
4.765625000000e+05
4.843750000000e+05
4.921875000000e+05
5.000000000000e+05
5.078125000000e+05
5.156250000000e+05
5.234375000000e+05
5.312500000000e+05
5.390625000000e+05
5.468750000000e+05
5.546875000000e+05
5.625000000000e+05
5.703125000000e+05
5.781250000000e+05
5.859375000000e+05
5.937500000000e+05
6.015625000000e+05
6.093750000000e+05
6.171875000000e+05
6.250000000000e+05
6.328125000000e+05
6.406250000000e+05
6.484375000000e+05
6.562500000000e+05
6.640625000000e+05
6.718750000000e+05
6.796875000000e+05
6.875000000000e+05
6.953125000000e+05
7.031250000000e+05
7.109375000000e+05
7.187500000000e+05
7.265625000000e+05
7.343750000000e+05
7.421875000000e+05
7.500000000000e+05
7.578125000000e+05
7.656250000000e+05
7.734375000000e+05
7.812500000000e+05
7.890625000000e+05
7.968750000000e+05
8.046875000000e+05
8.125000000000e+05
8.203125000000e+05
8.281250000000e+05
8.359375000000e+05
8.437500000000e+05
8.515625000000e+05
8.593750000000e+05
8.671875000000e+05
8.750000000000e+05
8.828125000000e+05
8.906250000000e+05
8.984375000000e+05
9.062500000000e+05
9.140625000000e+05
9.218750000000e+05
9.296875000000e+05
9.375000000000e+05
9.453125000000e+05
9.531250000000e+05
9.609375000000e+05
9.687500000000e+05
9.765625000000e+05
9.843750000000e+05
9.921875000000e+05
1.000000000000e+06
</indep>
<dep ac.v(if) frequency>
2.158449433044e-02+j0.000000000000e+00
8.179598134368e-02-j1.791057983814e-01
-1.657159000192e-01+j9.028931891619e-02
9.379048582239e-02-j4.684267874163e-03
-4.932444406176e-02-j1.966198868779e-02
2.133875803569e-02+j3.411491130814e-02
-1.133079707166e-03-j2.716197552173e-02
-1.048082489160e-02+j1.733398668942e-02
1.455062738922e-02-j5.975216259256e-03
-1.145874885497e-02-j1.980311951096e-03
6.327305231176e-03+j6.868201696536e-03
-9.412380202652e-04-j7.248853041052e-03
-2.638938386950e-03+j5.083249240242e-03
4.293484610174e-03-j1.935835196859e-03
-3.654106329366e-03-j6.408414185809e-04
2.048951758505e-03+j2.224713939312e-03
-2.482781337050e-04-j2.471091885590e-03
-9.556919221615e-04+j1.734473368483e-03
1.526828478941e-03-j6.291246573473e-04
-1.309533543322e-03-j2.872002153798e-04
7.162570491390e-04+j8.204460880393e-04
-5.025418311854e-05-j9.115326190754e-04
-3.724238569592e-04+j6.334743463469e-04
5.695912280170e-04-j2.159293773465e-04
-4.897052186510e-04-j1.269766444094e-04
2.649952464091e-04+j3.091269635832e-04
-7.194541137161e-06-j3.427671919752e-04
-1.457781231464e-04+j2.393122230925e-04
2.133695618535e-04-j7.893654568309e-05
-1.846787738315e-04-j5.521642073013e-05
1.010828909466e-04+j1.169645504085e-04
1.831255484780e-06-j1.279476360897e-04
-5.902730337764e-05+j8.981275056163e-05
7.963646995363e-05-j2.831532213783e-05
-6.726086579398e-05-j2.646277835715e-05
3.657088237274e-05+j4.581987803515e-05
5.091042948764e-06-j4.611075539046e-05
-2.680210283848e-05+j3.054498640464e-05
3.002747869471e-05-j7.450780223722e-06
-2.177105874372e-05-j1.549364843171e-05
1.002295993100e-05+j2.008234864790e-05
6.712234209494e-06-j1.576584110406e-05
-1.502777192898e-05+j7.250576410511e-06
1.262406537100e-05+j1.386441072055e-06
-5.354473128903e-06-j1.128807598373e-05
-4.228701261503e-07+j1.145509009321e-05
7.338166362711e-06-j5.977548387616e-06
-1.094001810347e-05-j7.258418866294e-07
7.592500610583e-06+j4.789351337065e-06
-8.047463076129e-07-j9.577561670898e-06
-3.907769977820e-06+j9.069014145769e-06
7.508089106237e-06-j3.906009898132e-06
-9.573067892094e-06-j2.560401172574e-06
6.734087348943e-06+j5.909361157531e-06
-4.420632975299e-07-j8.708389428673e-06
-4.575837012111e-06+j8.320799256494e-06
7.216100119538e-06-j3.911055547533e-06
-8.477786865204e-06-j2.301903159098e-06
6.329077404005e-06+j5.791668217540e-06
-9.254559158110e-07-j7.574825762547e-06
-4.060267033610e-06+j7.210944178608e-06
6.288273609419e-06-j3.816101269735e-06
-6.884120211902e-06-j1.496340494326e-06
5.365110568294e-06+j4.808469644060e-06
-1.349448924541e-06-j5.913585199368e-06
-2.859632147593e-06+j5.541507077098e-06
4.737909066277e-06-j3.358378484529e-06
-4.956793702560e-06-j5.035202478564e-07
4.082615122559e-06+j3.295857908961e-06
-1.602210096345e-06-j4.124963306532e-06
-1.515373974885e-06+j3.875541320149e-06
3.154976377125e-06-j2.776166208842e-06
-3.350287883885e-06+j3.246363105777e-07
2.955370460484e-06+j1.930363188082e-06
-1.641958482755e-06-j2.763858073111e-06
-5.462100063270e-07+j2.661448482190e-06
2.062381737536e-06-j2.162726639610e-06
-2.340791564548e-06+j6.793568261931e-07
2.106667525853e-06+j1.127960790287e-06
-1.386338031290e-06-j2.005997198970e-06
-1.512742154500e-07+j1.914202215535e-06
1.500749932947e-06-j1.524670694919e-06
-1.772517449743e-06+j5.721506045585e-07
1.426812189884e-06+j8.156578484549e-07
-8.701816563895e-07-j1.587022830781e-06
-1.490501463318e-07+j1.381740973038e-06
1.188336262000e-06-j8.940509169648e-07
-1.364692678210e-06+j2.583721213330e-07
8.941360865573e-07+j6.484503333720e-07
-3.879865154277e-07-j1.216216545787e-06
-1.916108936335e-07+j9.591587449602e-07
8.561603600834e-07-j4.368552484263e-07
-9.766715378392e-07+j3.450384564735e-08
5.439635072263e-07+j4.323711561572e-07
-1.212857234879e-07-j8.217087481978e-07
-1.443108526355e-07+j6.590992691098e-07
5.083941011825e-07-j2.413185839269e-07
-6.611081306730e-07-j1.718843200508e-08
3.996353137705e-07+j2.155132938514e-07
-6.964839655661e-08-j5.033539962268e-07
-7.219668661233e-08+j4.901256969855e-07
2.659962731946e-07-j2.094921015477e-07
-4.512262813291e-07-j1.183687918738e-08
3.401224795743e-07+j1.091375588779e-07
-6.984085767321e-08-j3.066639712082e-07
-7.153449452181e-08+j3.714902495099e-07
1.690955185317e-07-j1.777011796034e-07
-3.008091899318e-07-j4.967062982838e-08
2.492807600235e-07+j1.172100700433e-07
-2.164164124708e-08-j1.962379141420e-07
-1.227802579359e-07+j2.354090372460e-07
1.397644244808e-07-j9.921492671915e-08
-1.670585718672e-07-j9.762702319217e-08
1.283300010923e-07+j1.384228378839e-07
3.121715162757e-08-j1.135828369656e-07
-1.416542643202e-07+j9.565040627775e-08
1.089192272299e-07-j1.993231324784e-08
-5.986599625328e-08-j1.036680210755e-07
2.889143049453e-08+j1.190190626593e-07
4.099370813637e-08-j5.559651952095e-08
-9.970022698570e-08+j1.328566417817e-08
6.813625890237e-08+j5.499122483765e-09
-1.415204511673e-08-j5.239415366148e-08
-5.987681472169e-09+j6.255098278229e-08
1.229472525871e-08-j2.733444330258e-08
-3.202198411989e-08-j5.850059874891e-09
2.427007636530e-08+j5.245741674376e-09
-5.120689608451e-09-j5.944057190899e-10
-5.065891371323e-09+j0.000000000000e+00
</dep>
<dep ac.v(neg) frequency>
7.614682038070e+00+j0.000000000000e+00
-7.776473570350e+00-j6.407063372132e+00
4.732136258388e-01+j2.040817139482e+00
-2.612607241604e-01+j2.775726725263e-01
-7.078606547622e-02+j9.943006038653e-02
5.709644351587e-02-j4.430077455613e-02
-3.259371444241e-02+j4.960964151415e-02
3.921466907780e-02+j4.452886461890e-02
-3.526284081741e-02-j2.323613292591e-02
-3.273630786366e-03+j3.487812585400e-02
2.211864148043e-02-j2.126667391316e-02
-2.413114604316e-02+j1.406058843122e-02
1.860931420440e-02+j1.292823448023e-02
-1.329338884443e-02-j1.597975831841e-02
-1.125228466485e-03+j1.722011012672e-02
1.087276371835e-02-j9.712934975707e-03
-1.319716966684e-02+j5.081442821665e-03
8.896837036787e-03+j5.796699789670e-03
-5.384803738917e-03-j8.683004909714e-03
-8.656465395274e-04+j8.615017993723e-03
5.320718527160e-03-j4.258528655272e-03
-6.830061161996e-03+j1.868648016803e-03
4.171467838830e-03+j2.720850049101e-03
-2.187080690528e-03-j4.326329773672e-03
-5.654326820127e-04+j4.266881578376e-03
2.414385620798e-03-j1.824888382893e-03
-3.404369942214e-03+j6.721619755299e-04
1.935811449068e-03+j1.221359393695e-03
-8.823089613467e-04-j1.998606103543e-03
-3.557642443716e-04+j2.091132118318e-03
9.928339009809e-04-j7.682564009638e-04
-1.640797643979e-03+j1.942623428172e-04
8.805531005101e-04+j5.475336184000e-04
-3.306354204205e-04-j8.516139643870e-04
-2.715197962902e-04+j9.972043992783e-04
3.675788612189e-04-j2.970933445001e-04
-7.538339126100e-04-j2.031297900056e-05
3.664885513558e-04+j2.844548567116e-04
-8.703237861773e-05-j3.271445713159e-04
-2.521111296219e-04+j4.430771465807e-04
1.331717246079e-04-j8.160018283453e-05
-3.254615310791e-04-j1.181987988406e-04
1.146921232656e-04+j2.041532786931e-04
1.904639732755e-05-j1.199113969057e-04
-2.514477555750e-04+j1.724553603780e-04
7.932043079668e-05+j1.352550960551e-05
-1.426706243883e-04-j1.564852075299e-04
4.113665993463e-07+j1.978763542369e-04
6.195054189278e-05-j7.151087663306e-05
-2.516615216272e-04+j5.740795299750e-05
1.029184235049e-04+j5.173119653338e-05
-8.803422433939e-05-j1.678257713458e-04
-4.331024064383e-05+j2.143874645883e-04
8.081550696579e-05-j9.216380992613e-05
-2.470949086373e-04+j1.977487606756e-05
1.429823577743e-04+j6.814160939052e-05
-8.538306554360e-05-j1.663309641738e-04
-5.572966055507e-05+j2.206554773845e-04
8.779502514311e-05-j1.227285740016e-04
-2.271731119347e-04+j1.375529097821e-05
1.627826335931e-04+j7.182265337971e-05
-9.306991106715e-05-j1.509993902031e-04
-5.270879204581e-05+j2.011730603925e-04
8.165833576311e-05-j1.342888739499e-04
-1.870029717361e-04+j1.878131159083e-05
1.520997556003e-04+j6.100311249077e-05
-9.646197542913e-05-j1.202003896575e-04
-3.631168918569e-05+j1.596698111915e-04
6.158240159248e-05-j1.278633094080e-04
-1.378303692540e-04+j3.031610377150e-05
1.246127051913e-04+j3.942446905423e-05
-9.621355365160e-05-j8.527126991559e-05
-1.361887801915e-05+j1.158569914271e-04
3.998321476819e-05-j1.134409077864e-04
-9.707809734480e-05+j4.201282463161e-05
9.726985809654e-05+j1.957766617174e-05
-9.116439906930e-05-j6.184083053872e-05
3.175002345290e-06+j8.366003848242e-05
2.858568118342e-05-j9.650817921966e-05
-7.436718774650e-05+j4.591483204399e-05
7.656725204702e-05+j1.129814936665e-05
-7.866672053422e-05-j5.467993286869e-05
7.291910939333e-06+j6.587563633544e-05
3.037498067500e-05-j7.701539739000e-05
-6.536781744562e-05+j3.686651790828e-05
5.885463186948e-05+j1.317886391721e-05
-5.838676778250e-05-j5.493475385390e-05
2.291423511285e-06+j5.396870823405e-05
3.376739558667e-05-j5.550969506793e-05
-5.888357862347e-05+j2.249712237430e-05
4.301315555783e-05+j1.530252083435e-05
-3.767290363505e-05-j5.131623523880e-05
-1.837958669005e-06+j4.280315817444e-05
2.982307597288e-05-j3.758009641377e-05
-4.877345948544e-05+j1.238824459605e-05
3.123279160988e-05+j1.058505548470e-05
-2.516587093051e-05-j4.052183628401e-05
6.526675325174e-07+j3.368062615007e-05
1.959932033696e-05-j2.901536559669e-05
-3.871887126134e-05+j1.037424197124e-05
2.681757581579e-05+j3.181529355574e-06
-2.106437368933e-05-j2.985871387762e-05
4.125307602417e-06+j2.945156465537e-05
1.222095983213e-05-j2.644046704755e-05
-3.236725460203e-05+j1.003720191708e-05
2.666396750361e-05+j1.326041864627e-06
-1.740087633147e-05-j2.534552258356e-05
1.004367699717e-06+j2.753246560867e-05
1.289231654790e-05-j2.219229996049e-05
-2.852194156306e-05+j3.522248823227e-06
2.307085392751e-05+j7.313663340941e-06
-8.691011326768e-06-j2.428616707963e-05
-7.942659315259e-06+j2.309926947543e-05
1.778198669075e-05-j1.362334419098e-05
-2.425735414499e-05-j7.208160311627e-06
1.507289670842e-05+j1.611403750924e-05
2.346018962516e-06-j2.333591277873e-05
-1.729672510918e-05+j1.573205388980e-05
2.107614775900e-05-j3.173786322551e-06
-1.789516363025e-05-j1.507716632855e-05
6.767172244987e-06+j1.996316332730e-05
7.912073269951e-06-j2.031240878694e-05
-1.950312956090e-05+j1.058500118824e-05
2.085413245202e-05+j1.040504954614e-06
-1.544446516884e-05-j1.494599379712e-05
4.586068242940e-06+j2.015267077715e-05
7.391866487072e-06-j1.891772714790e-05
-1.695593930418e-05+j1.093627247961e-05
9.999299811714e-06+j0.000000000000e+00
</dep>
<dep ac.v(pos) frequency>
7.548362148950e+00+j0.000000000000e+00
-7.529127268791e+00-j6.513729737180e+00
2.056354276703e-01+j1.993398436956e+00
-1.465771722142e-01+j4.223316737268e-01
-6.847051912170e-02-j4.824697177322e-02
-2.028541177158e-02+j5.873626519354e-02
6.971702490743e-02+j1.688030791113e-02
-5.015229351495e-02+j1.461665695616e-02
1.135150645079e-02+j4.284688567164e-02
-2.476491289858e-03-j3.472828399123e-02
-1.525312476619e-02+j2.718919444961e-02
2.622702788606e-02-j3.529595035817e-04
-2.434166663474e-02-j3.234027820150e-03
7.975563324714e-03+j1.779354608420e-02
1.335026437110e-03-j1.706880668273e-02
-9.061209556804e-03+j1.300954714364e-02
1.223160944439e-02-j3.031199417755e-04
-1.167139999189e-02-j3.567901750395e-03
3.931561946741e-03+j8.671320227890e-03
1.467447931265e-03-j8.089545560672e-03
-5.064805768189e-03+j6.204012124399e-03
5.700640459702e-03+j2.125419895822e-05
-5.497938619997e-03-j2.312016696479e-03
1.865817464030e-03+j4.242972366859e-03
9.228422749697e-04-j3.660184362462e-03
-2.691958617393e-03+j2.951862342206e-03
2.555282792562e-03+j3.713826007237e-05
-2.523862831414e-03-j1.274118277951e-03
8.906940001089e-04+j2.055910306492e-03
4.549975379294e-04-j1.561551472811e-03
-1.409681566952e-03+j1.374304144899e-03
1.097904417881e-03+j5.079728241092e-06
-1.099041623088e-03-j6.591199318540e-04
3.895048170525e-04+j1.011314099886e-03
1.980763679040e-04-j6.054262233455e-04
-7.580663265835e-04+j5.780443777841e-04
4.543837486411e-04+j1.748605600600e-05
-4.204700334990e-04-j3.430077482344e-04
1.044335933862e-04+j5.215936424217e-04
9.241200108641e-05-j1.936933641727e-04
-4.314914114329e-04+j1.714607569800e-04
1.875593270186e-04+j5.985698638472e-05
-1.136061218092e-04-j1.963408792033e-04
-5.938462900153e-05+j2.963177191347e-04
7.222597701876e-05-j4.433832112361e-05
-2.763023937630e-04-j2.027119985813e-05
9.832790751882e-05+j1.075405203786e-04
-1.553079512362e-06-j1.456266599791e-04
-1.428662021813e-04+j2.021230580966e-04
9.351684206182e-05-j1.694761480020e-05
-2.128258710325e-04-j9.459080112841e-05
8.405956418922e-05+j1.502109389464e-04
2.061436958223e-05-j1.474410360001e-04
-1.789760069526e-04+j1.696535247547e-04
1.296374509498e-04-j3.353408311707e-05
-1.924020562704e-04-j1.092732015142e-04
8.990423990803e-05+j1.760595678940e-04
1.023716270284e-05-j1.608754965195e-04
-1.815778624712e-04+j1.511870954844e-04
1.527843184993e-04-j4.958452151036e-05
-1.768180169960e-04-j9.722145723539e-05
8.722920881716e-05+j1.770988471948e-04
-5.520188034047e-06-j1.624631076206e-04
-1.574194882283e-04+j1.296547140417e-04
1.500890125326e-04-j5.727785794063e-05
-1.536661553291e-04-j6.758606325710e-05
7.663378638578e-05+j1.489065449297e-04
-2.307858332690e-05-j1.448734784873e-04
-1.130661723134e-04+j1.042514252323e-04
1.251520448428e-04-j5.848341733893e-05
-1.272468379789e-04-j3.287258599700e-05
6.538238832143e-05+j1.068091165575e-04
-3.711939151504e-05-j1.209237228478e-04
-6.777694485677e-05+j8.466860029215e-05
9.561728686696e-05-j5.658985434219e-05
-1.065097153894e-04-j7.485164763513e-06
5.606395772427e-05+j7.113048251336e-05
-3.932256548680e-05-j1.022490259531e-04
-4.024356334295e-05+j7.271645716193e-05
7.564167110480e-05-j4.895722992658e-05
-9.337286161100e-05-j4.132635092953e-07
4.667920447098e-05+j5.108589822157e-05
-2.832715070070e-05-j8.813979162114e-05
-3.196733961254e-05+j6.126664074076e-05
6.337202975487e-05-j3.326719454602e-05
-8.012595798660e-05-j8.799626848000e-06
3.408906840712e-05+j4.311709376237e-05
-1.080356442131e-05-j7.447242340287e-05
-3.209939859534e-05+j4.876236198688e-05
5.162148630979e-05-j1.790694206081e-05
-6.356768459857e-05-j1.768830086016e-05
2.299373594272e-05+j3.543120719129e-05
1.131597320654e-06-j5.727431681063e-05
-2.926258441583e-05+j3.654561817777e-05
3.810020375130e-05-j9.930884039169e-06
-4.774552762417e-05-j1.929250240484e-05
1.905211957769e-05+j2.618895036783e-05
2.475934450041e-06-j4.211130721916e-05
-2.262055771582e-05+j3.006414256112e-05
2.740607806191e-05-j1.170812257158e-05
-3.731261309066e-05-j1.461338598718e-05
2.073601296658e-05+j1.933381667054e-05
-1.324371038526e-06-j3.306382961076e-05
-1.782088903680e-05+j2.730303252531e-05
2.277003626577e-05-j1.467803616112e-05
-3.055826130816e-05-j1.203522842947e-05
1.962823409502e-05+j1.876036947681e-05
-5.731632755530e-07-j2.850262470044e-05
-1.935568647665e-05+j2.177223234854e-05
2.318024627113e-05-j1.010678052087e-05
-2.376426577334e-05-j1.543956553581e-05
1.172939550417e-05+j2.192709892417e-05
6.140205096998e-06-j2.395360940710e-05
-2.252811203817e-05+j1.185586247542e-05
2.159704440273e-05+j4.171827863234e-07
-1.326004309526e-05-j1.998569385139e-05
-1.062771841205e-06+j2.232902549581e-05
1.506149247177e-05-j1.642842051470e-05
-2.399227149655e-05+j6.838705823853e-07
1.855353358518e-05+j1.084362211631e-05
-5.640657341328e-06-j2.230092355606e-05
-8.086451212197e-06+j2.058786351480e-05
1.813376998289e-05-j1.139932541661e-05
-2.162584479028e-05-j3.134952491858e-06
1.593551536055e-05+j1.334171780265e-05
-4.111869546769e-06-j2.028138555454e-05
-7.533371575108e-06+j1.887954823232e-05
1.686199643469e-05-j1.123693833893e-05
-1.007103380513e-05+j0.000000000000e+00
</dep>
<indep time 523>
0.000000000000e+00
4.000000000000e-08
4.229456909468e-08
4.688370728405e-08
5.606198366278e-08
7.441853642024e-08
1.111316419352e-07
1.713130751331e-07
2.402124700991e-07
3.389159317675e-07
4.650215142634e-07
6.441283317928e-07
8.822910941243e-07
1.232484739580e-06
1.727400981838e-06
2.510324090737e-06
3.872694799634e-06
5.674361273298e-06
9.193294964381e-06
1.319329496438e-05
1.719329496438e-05
2.119329496438e-05
2.519329496438e-05
2.919329496438e-05
3.319329496438e-05
3.719329496438e-05
4.119329496438e-05
4.519329496438e-05
4.919329496438e-05
5.319329496438e-05
5.719329496438e-05
6.119329496438e-05
6.519329496438e-05
6.919329496438e-05
7.319329496438e-05
7.719329496438e-05
8.119329496438e-05
8.519329496438e-05
8.919329496438e-05
9.319329496438e-05
9.719329496438e-05
1.011932949644e-04
1.045820645927e-04
1.078735775941e-04
1.108451868429e-04
1.148451868429e-04
1.188451868429e-04
1.228451868429e-04
1.268451868429e-04
1.308451868429e-04
1.348451868429e-04
1.388451868429e-04
1.428451868429e-04
1.468451868429e-04
1.508451868429e-04
1.548451868429e-04
1.588451868429e-04
1.628451868429e-04
1.668451868429e-04
1.708451868429e-04
1.748451868429e-04
1.788451868429e-04
1.828451868429e-04
1.868451868429e-04
1.908451868429e-04
1.948451868429e-04
1.988451868429e-04
2.028451868429e-04
2.068451868429e-04
2.097720600414e-04
2.125367865025e-04
2.165367865025e-04
2.205367865025e-04
2.245367865025e-04
2.285367865025e-04
2.325367865025e-04
2.365367865025e-04
2.405367865025e-04
2.445367865025e-04
2.485367865025e-04
2.525367865025e-04
2.565367865025e-04
2.605367865025e-04
2.645367865025e-04
2.685367865025e-04
2.725367865025e-04
2.765367865025e-04
2.805367865025e-04
2.845367865025e-04
2.885367865025e-04
2.925367865025e-04
2.965367865025e-04
3.005367865025e-04
3.045367865025e-04
3.083940292336e-04
3.119638284535e-04
3.157727711008e-04
3.197727711008e-04
3.237727711008e-04
